Time Stamp,ID,Extended,Dir,Bus,LEN,D1,D2,D3,D4,D5,D6,D7,D8
465241,00000418,false,Rx,0,8,22,02,2D,FE,7A,FE,20,00,
465261,00000418,false,Rx,0,8,14,02,51,FE,D2,FE,20,00,
465261,00000418,false,Rx,0,8,24,02,2F,FE,8A,FE,29,00,
465261,00000418,false,Rx,0,8,18,02,48,FE,E2,FE,34,00,
465269,00000418,false,Rx,0,8,1E,02,2E,FE,76,FE,34,00,
465035,00000418,false,Rx,0,8,11,02,4E,FE,CF,FE,29,00,
465036,00000418,false,Rx,0,8,26,02,28,FE,9A,FE,1E,00,
465043,00000418,false,Rx,0,8,0C,02,4E,FE,AE,FE,1B,00,
465043,00000418,false,Rx,0,8,28,02,2D,FE,C2,FE,20,00,
465044,00000418,false,Rx,0,8,10,02,4E,FE,94,FE,21,00,
465056,00000418,false,Rx,0,8,23,02,2F,FE,C6,FE,1B,00,
465068,00000418,false,Rx,0,8,14,02,4E,FE,8F,FE,17,00,
465068,00000418,false,Rx,0,8,1F,02,32,FE,C1,FE,1B,00,
465082,00000418,false,Rx,0,8,17,02,45,FE,88,FE,24,00,
465091,00000418,false,Rx,0,8,1D,02,35,FE,D5,FE,28,00,
465091,00000418,false,Rx,0,8,19,02,3F,FE,8E,FE,23,00,
465102,00000418,false,Rx,0,8,1A,02,3B,FE,CF,FE,1D,00,
465102,00000418,false,Rx,0,8,1E,02,39,FE,82,FE,20,00,
465112,00000418,false,Rx,0,8,1C,02,3D,FE,C6,FE,2C,00,
465131,00000418,false,Rx,0,8,17,02,37,FE,89,FE,34,00,
465131,00000418,false,Rx,0,8,20,02,3F,FE,C8,FE,2F,00,
465141,00000611,false,Rx,0,1,01,00,00,00,00,00,00,00,
465141,00000418,false,Rx,0,8,1C,02,3A,FE,90,FE,27,00,
465141,00000418,false,Rx,0,8,28,02,36,FE,D4,FE,26,00,
465141,00000418,false,Rx,0,8,15,02,47,FE,90,FE,30,00,
465411,00000418,false,Rx,0,8,21,02,33,FE,CB,FE,39,00,
465423,00000418,false,Rx,0,8,20,02,3E,FE,8A,FE,37,00,
465424,00000418,false,Rx,0,8,20,02,34,FE,D4,FE,30,00,
465441,00000418,false,Rx,0,8,20,02,48,FE,8F,FE,2F,00,
465441,00000418,false,Rx,0,8,25,02,34,FE,C6,FE,35,00,
465449,00000418,false,Rx,0,8,11,02,50,FE,A1,FE,38,00,
465449,00000418,false,Rx,0,8,35,02,33,FE,9B,FE,30,00,
465460,00000418,false,Rx,0,8,1C,02,36,FE,D7,FE,22,00,
465470,00000418,false,Rx,0,8,1E,02,58,FE,8E,FE,1B,00,
465471,00000418,false,Rx,0,8,2B,02,37,FE,C1,FE,1D,00,
465492,00000418,false,Rx,0,8,16,02,3F,FE,C8,FE,23,00,
465501,00000418,false,Rx,0,8,20,02,57,FE,85,FE,25,00,
465501,00000418,false,Rx,0,8,37,02,2E,FE,CA,FE,23,00,
465501,00000418,false,Rx,0,8,18,02,46,FE,CD,FE,22,00,
465510,00000418,false,Rx,0,8,13,02,53,FE,84,FE,25,00,
465510,00000418,false,Rx,0,8,37,02,2D,FE,C5,FE,29,00,
465526,00000418,false,Rx,0,8,0F,02,51,FE,AF,FE,2A,00,
465533,00000418,false,Rx,0,8,23,02,44,FE,7D,FE,29,00,
465533,00000418,false,Rx,0,8,34,02,38,FE,DA,FE,26,00,
465307,00000418,false,Rx,0,8,11,02,4D,FE,94,FE,24,00,
465307,00000418,false,Rx,0,8,3C,02,3E,FE,BE,FE,23,00,
465327,00000418,false,Rx,0,8,13,02,4C,FE,C8,FE,24,00,
465327,00000418,false,Rx,0,8,2B,02,42,FE,84,FE,25,00,
465327,00000418,false,Rx,0,8,29,02,47,FE,D6,FE,24,00,
465328,00000418,false,Rx,0,8,19,02,4D,FE,90,FE,24,00,
465328,00000418,false,Rx,0,8,36,02,38,FE,C5,FE,26,00,
465343,00000418,false,Rx,0,8,12,02,54,FE,A3,FE,29,00,
465343,00000418,false,Rx,0,8,39,02,38,FE,93,FE,28,00,
465343,00000418,false,Rx,0,8,17,02,47,FE,D8,FE,22,00,
465356,00000610,false,Rx,0,2,02,0F,00,00,00,00,00,00,
465356,00000418,false,Rx,0,8,2A,02,43,FE,7B,FE,1C,00,
465366,00000418,false,Rx,0,8,22,02,49,FE,D7,FE,1D,00,
465366,00000418,false,Rx,0,8,2C,02,40,FE,87,FE,24,00,
465374,00000418,false,Rx,0,8,1C,02,4A,FE,CE,FE,29,00,
465389,00000418,false,Rx,0,8,29,02,3E,FE,7F,FE,27,00,
465402,00000418,false,Rx,0,8,21,02,47,FE,D9,FE,21,00,
465402,00000418,false,Rx,0,8,2F,02,44,FE,80,FE,1F,00,
465403,00000418,false,Rx,0,8,1E,02,45,FE,D2,FE,26,00,
465669,00000418,false,Rx,0,8,2A,02,3C,FE,7B,FE,2E,00,
465679,00000418,false,Rx,0,8,1F,02,4F,FE,D6,FE,2E,00,
465679,00000418,false,Rx,0,8,31,02,37,FE,7F,FE,27,00,
465691,00000418,false,Rx,0,8,19,02,4F,FE,E0,FE,23,00,
465709,00000418,false,Rx,0,8,31,02,38,FE,84,FE,27,00,
465709,00000418,false,Rx,0,8,21,02,51,FE,DE,FE,2E,00,
465709,00000418,false,Rx,0,8,2D,02,35,FE,79,FE,2F,00,
465710,00000418,false,Rx,0,8,1C,02,52,FE,DD,FE,28,00,
465717,00000418,false,Rx,0,8,28,02,39,FE,7A,FE,21,00,
465728,00000418,false,Rx,0,8,21,02,52,FE,DC,FE,22,00,
465740,00000418,false,Rx,0,8,28,02,3A,FE,76,FE,2A,00,
465740,00000418,false,Rx,0,8,1E,02,56,FE,D9,FE,2D,00,
465759,00000418,false,Rx,0,8,23,02,40,FE,79,FE,27,00,
465759,00000418,false,Rx,0,8,1A,02,56,FE,BA,FE,1E,00,
465767,00000418,false,Rx,0,8,29,02,39,FE,8A,FE,1E,00,
465767,00000418,false,Rx,0,8,1B,02,5A,FE,C0,FE,27,00,
465776,00000418,false,Rx,0,8,22,02,3E,FE,8C,FE,31,00,
465787,00000418,false,Rx,0,8,12,02,5C,FE,9A,FE,33,00,
465548,00000418,false,Rx,0,8,2E,02,3C,FE,A5,FE,2D,00,
465549,00000418,false,Rx,0,8,0F,02,5B,FE,8A,FE,27,00,
465549,00000418,false,Rx,0,8,24,02,48,FE,B0,FE,28,00,
465558,00000418,false,Rx,0,8,0F,02,58,FE,8B,FE,2D,00,
465558,00000418,false,Rx,0,8,2A,02,41,FE,BD,FE,30,00,
465568,00000418,false,Rx,0,8,0D,02,60,FE,80,FE,2E,00,
465577,00000418,false,Rx,0,8,26,02,43,FE,B6,FE,2C,00,
465593,00000418,false,Rx,0,8,0B,02,56,FE,7A,FE,2E,00,
465607,00000418,false,Rx,0,8,29,02,4C,FE,CC,FE,32,00,
465607,00000418,false,Rx,0,8,12,02,55,FE,86,FE,34,00,
465608,00000418,false,Rx,0,8,1F,02,50,FE,BA,FE,34,00,
465608,00000418,false,Rx,0,8,13,02,4F,FE,7C,FE,33,00,
465614,00000418,false,Rx,0,8,1B,02,54,FE,C7,FE,35,00,
465623,00000611,false,Rx,0,1,01,00,00,00,00,00,00,00,
465624,00000418,false,Rx,0,8,1C,02,47,FE,74,FE,37,00,
465633,00000418,false,Rx,0,8,10,02,5E,FE,B9,FE,37,00,
465650,00000418,false,Rx,0,8,2C,02,41,FE,85,FE,35,00,
465662,00000418,false,Rx,0,8,08,02,5A,FE,A6,FE,36,00,
465662,00000418,false,Rx,0,8,30,02,48,FE,B2,FE,38,00,
465662,00000418,false,Rx,0,8,0B,02,5B,FE,8D,FE,36,00,
465950,00000418,false,Rx,0,8,35,02,40,FE,C6,FE,2F,00,
465951,00000418,false,Rx,0,8,0A,02,64,FE,8B,FE,25,00,
465951,00000418,false,Rx,0,8,30,02,3D,FE,B6,FE,20,00,
465962,00000418,false,Rx,0,8,16,02,56,FE,84,FE,21,00,
465962,00000418,false,Rx,0,8,2D,02,48,FE,D4,FE,24,00,
465962,00000418,false,Rx,0,8,1E,02,52,FE,7F,FE,23,00,
465982,00000418,false,Rx,0,8,1A,02,4B,FE,BF,FE,1F,00,
465982,00000418,false,Rx,0,8,29,02,50,FE,7B,FE,1C,00,
465992,00000418,false,Rx,0,8,1D,02,50,FE,C4,FE,1C,00,
465992,00000418,false,Rx,0,8,29,02,3E,FE,77,FE,20,00,
465992,00000418,false,Rx,0,8,15,02,5C,FE,C7,FE,22,00,
466011,00000418,false,Rx,0,8,36,02,38,FE,82,FE,24,00,
466011,00000418,false,Rx,0,8,18,02,53,FE,D7,FE,27,00,
466012,00000418,false,Rx,0,8,3E,02,40,FE,AC,FE,2B,00,
466022,00000418,false,Rx,0,8,0D,02,56,FE,A2,FE,2C,00,
466029,00000418,false,Rx,0,8,44,02,32,FE,CE,FE,28,00,
466041,00000418,false,Rx,0,8,10,02,58,FE,8F,FE,24,00,
465801,00000418,false,Rx,0,8,3B,02,39,FE,C2,FE,25,00,
465801,00000418,false,Rx,0,8,11,02,54,FE,92,FE,2C,00,
465811,00000418,false,Rx,0,8,3A,02,3A,FE,CA,FE,31,00,
465811,00000418,false,Rx,0,8,14,02,55,FE,92,FE,2E,00,
465823,00000418,false,Rx,0,8,37,02,3A,FE,CB,FE,24,00,
465823,00000418,false,Rx,0,8,13,02,5A,FE,82,FE,1D,00,
465835,00000418,false,Rx,0,8,37,02,37,FE,DB,FE,1E,00,
465852,00000418,false,Rx,0,8,18,02,50,FE,92,FE,25,00,
465852,00000418,false,Rx,0,8,30,02,43,FE,CC,FE,29,00,
465859,00000418,false,Rx,0,8,1A,02,4D,FE,83,FE,28,00,
465859,00000610,false,Rx,0,2,02,0F,00,00,00,00,00,00,
465859,00000418,false,Rx,0,8,30,02,43,FE,D6,FE,26,00,
465860,00000418,false,Rx,0,8,1B,02,47,FE,85,FE,28,00,
465877,00000418,false,Rx,0,8,2C,02,4C,FE,CE,FE,2B,00,
465893,00000418,false,Rx,0,8,26,02,3E,FE,86,FE,2B,00,
465893,00000418,false,Rx,0,8,1F,02,53,FE,D2,FE,27,00,
465910,00000418,false,Rx,0,8,2A,02,3C,FE,83,FE,24,00,
465911,00000418,false,Rx,0,8,1A,02,55,FE,B3,FE,27,00,
465911,00000418,false,Rx,0,8,2E,02,31,FE,93,FE,2D,00,
466177,00000418,false,Rx,0,8,16,02,5A,FE,AB,FE,32,00,
466177,00000418,false,Rx,0,8,34,02,3E,FE,A6,FE,30,00,
466187,00000418,false,Rx,0,8,12,02,5A,FE,9C,FE,29,00,
466205,00000418,false,Rx,0,8,3B,02,39,FE,B3,FE,24,00,
466206,00000418,false,Rx,0,8,16,02,5A,FE,A4,FE,25,00,
466218,00000418,false,Rx,0,8,2F,02,35,FE,A0,FE,2A,00,
466218,00000418,false,Rx,0,8,1D,02,5A,FE,AF,FE,2D,00,
466219,00000418,false,Rx,0,8,35,02,2D,FE,9C,FE,2A,00,
466234,00000418,false,Rx,0,8,15,02,55,FE,BD,FE,24,00,
466234,00000418,false,Rx,0,8,35,02,39,FE,99,FE,21,00,
466256,00000418,false,Rx,0,8,1D,02,58,FE,BF,FE,26,00,
466257,00000418,false,Rx,0,8,2F,02,35,FE,89,FE,2E,00,
466273,00000418,false,Rx,0,8,28,02,50,FE,E7,FE,31,00,
466273,00000418,false,Rx,0,8,28,02,3A,FE,73,FE,2E,00,
466273,00000418,false,Rx,0,8,25,02,4C,FE,CF,FE,28,00,
466283,00000418,false,Rx,0,8,2D,02,39,FE,97,FE,26,00,
466284,00000418,false,Rx,0,8,2E,02,46,FE,DF,FE,2A,00,
466297,00000418,false,Rx,0,8,25,02,36,FE,89,FE,2D,00,
466297,00000418,false,Rx,0,8,2E,02,48,FE,D5,FE,2C,00,
466055,00000418,false,Rx,0,8,2D,02,39,FE,7F,FE,28,00,
466070,00000418,false,Rx,0,8,2B,02,3C,FE,E0,FE,28,00,
466071,00000418,false,Rx,0,8,2B,02,48,FE,8D,FE,2A,00,
466071,00000418,false,Rx,0,8,24,02,3B,FE,CB,FE,28,00,
466076,00000418,false,Rx,0,8,2D,02,41,FE,8B,FE,22,00,
466076,00000418,false,Rx,0,8,31,02,34,FE,DD,FE,1A,00,
466085,00000418,false,Rx,0,8,25,02,49,FE,90,FE,18,00,
466108,00000418,false,Rx,0,8,32,02,2E,FE,D8,FE,1C,00,
466116,00000418,false,Rx,0,8,24,02,50,FE,9D,FE,1F,00,
466116,00000418,false,Rx,0,8,40,02,28,FE,CD,FE,1E,00,
466116,00000418,false,Rx,0,8,17,02,58,FE,9C,FE,1A,00,
466126,00000418,false,Rx,0,8,39,02,31,FE,B4,FE,19,00,
466126,00000611,false,Rx,0,1,01,00,00,00,00,00,00,00,
466138,00000418,false,Rx,0,8,19,02,4D,FE,B8,FE,1D,00,
466138,00000418,false,Rx,0,8,3B,02,28,FE,92,FE,20,00,
466162,00000418,false,Rx,0,8,18,02,51,FE,E3,FE,1E,00,
466432,00000418,false,Rx,0,8,32,02,37,FE,68,FE,1C,00,
466433,00000418,false,Rx,0,8,1B,02,43,FE,D1,FE,21,00,
466433,00000418,false,Rx,0,8,2F,02,40,FE,85,FE,2E,00,
466433,00000418,false,Rx,0,8,1D,02,44,FE,CA,FE,39,00,
466445,00000418,false,Rx,0,8,27,02,3B,FE,85,FE,39,00,
466445,00000418,false,Rx,0,8,1F,02,4B,FE,BF,FE,2F,00,
466462,00000418,false,Rx,0,8,27,02,3D,FE,84,FE,25,00,
466462,00000418,false,Rx,0,8,2C,02,3D,FE,E1,FE,25,00,
466469,00000418,false,Rx,0,8,1F,02,45,FE,83,FE,2D,00,
466469,00000418,false,Rx,0,8,27,02,45,FE,C6,FE,35,00,
466480,00000418,false,Rx,0,8,1F,02,3A,FE,86,FE,33,00,
466492,00000418,false,Rx,0,8,28,02,45,FE,C2,FE,2C,00,
466492,00000418,false,Rx,0,8,1D,02,44,FE,94,FE,26,00,
466519,00000418,false,Rx,0,8,2E,02,3F,FE,DB,FE,26,00,
466527,00000418,false,Rx,0,8,1A,02,49,FE,7A,FE,29,00,
466528,00000418,false,Rx,0,8,30,02,3B,FE,DC,FE,2B,00,
466528,00000418,false,Rx,0,8,1B,02,45,FE,86,FE,29,00,
466528,00000418,false,Rx,0,8,22,02,48,FE,BF,FE,28,00,
466536,00000418,false,Rx,0,8,20,02,40,FE,7E,FE,29,00,
466543,00000418,false,Rx,0,8,27,02,42,FE,D3,FE,28,00,
466544,00000418,false,Rx,0,8,1F,02,47,FE,7C,FE,22,00,
466550,00000418,false,Rx,0,8,1F,02,41,FE,CD,FE,1B,00,
466309,00000418,false,Rx,0,8,23,02,44,FE,77,FE,1E,00,
466326,00000418,false,Rx,0,8,20,02,3A,FE,C7,FE,2D,00,
466326,00000418,false,Rx,0,8,27,02,4E,FE,91,FE,3D,00,
466340,00000418,false,Rx,0,8,1F,02,39,FE,C1,FE,41,00,
466340,00000418,false,Rx,0,8,21,02,50,FE,7A,FE,36,00,
466340,00000418,false,Rx,0,8,30,02,2E,FE,DE,FE,28,00,
466363,00000418,false,Rx,0,8,19,02,61,FE,8D,FE,20,00,
466364,00000418,false,Rx,0,8,22,02,35,FE,AE,FE,21,00,
466364,00000610,false,Rx,0,2,02,0F,00,00,00,00,00,00,
466377,00000418,false,Rx,0,8,21,02,4D,FE,9D,FE,25,00,
466377,00000418,false,Rx,0,8,31,02,31,FE,CA,FE,2B,00,
466378,00000418,false,Rx,0,8,15,02,51,FE,84,FE,2F,00,
466397,00000418,false,Rx,0,8,26,02,2D,FE,BB,FE,2E,00,
466398,00000418,false,Rx,0,8,1B,02,4B,FE,93,FE,27,00,
466416,00000418,false,Rx,0,8,2F,02,29,FE,CE,FE,1D,00,
466416,00000418,false,Rx,0,8,17,02,53,FE,93,FE,1A,00,
466417,00000418,false,Rx,0,8,2D,02,2A,FE,CA,FE,22,00,
466692,00000418,false,Rx,0,8,1B,02,46,FE,94,FE,2F,00,
466693,00000418,false,Rx,0,8,31,02,36,FE,DD,FE,36,00,
466718,00000418,false,Rx,0,8,14,02,3F,FE,83,FE,32,00,
466718,00000418,false,Rx,0,8,28,02,44,FE,C5,FE,29,00,
466718,00000418,false,Rx,0,8,23,02,31,FE,83,FE,22,00,
466718,00000418,false,Rx,0,8,18,02,4B,FE,C6,FE,23,00,
466731,00000418,false,Rx,0,8,2E,02,2B,FE,AF,FE,2A,00,
466731,00000418,false,Rx,0,8,15,02,4B,FE,8E,FE,32,00,
466732,00000418,false,Rx,0,8,31,02,29,FE,D4,FE,33,00,
466748,00000418,false,Rx,0,8,15,02,41,FE,8D,FE,2A,00,
466748,00000418,false,Rx,0,8,1F,02,42,FE,C7,FE,1F,00,
466770,00000418,false,Rx,0,8,23,02,35,FE,80,FE,1C,00,
466770,00000418,false,Rx,0,8,19,02,46,FE,B9,FE,25,00,
466787,00000418,false,Rx,0,8,23,02,31,FE,AF,FE,32,00,
466787,00000418,false,Rx,0,8,18,02,46,FE,89,FE,35,00,
466787,00000418,false,Rx,0,8,20,02,2D,FE,D2,FE,29,00,
466805,00000418,false,Rx,0,8,21,02,3F,FE,84,FE,1B,00,
466806,00000418,false,Rx,0,8,15,02,46,FE,BA,FE,17,00,
466806,00000418,false,Rx,0,8,2E,02,2A,FE,81,FE,1F,00,
466571,00000418,false,Rx,0,8,0C,02,55,FE,AD,FE,27,00,
466571,00000418,false,Rx,0,8,39,02,37,FE,BA,FE,28,00,
466587,00000418,false,Rx,0,8,09,02,4D,FE,90,FE,24,00,
466587,00000418,false,Rx,0,8,3A,02,47,FE,B6,FE,22,00,
466587,00000418,false,Rx,0,8,0D,02,4E,FE,8C,FE,25,00,
466588,00000418,false,Rx,0,8,36,02,31,FE,C0,FE,28,00,
466598,00000418,false,Rx,0,8,0A,02,61,FE,86,FE,29,00,
466598,00000418,false,Rx,0,8,38,02,33,FE,C0,FE,2A,00,
466617,00000418,false,Rx,0,8,0F,02,50,FE,89,FE,2A,00,
466627,00000418,false,Rx,0,8,2C,02,3A,FE,A8,FE,2A,00,
466627,00000418,false,Rx,0,8,11,02,56,FE,8D,FE,26,00,
466628,00000611,false,Rx,0,1,01,00,00,00,00,00,00,00,
466628,00000418,false,Rx,0,8,33,02,2D,FE,BA,FE,21,00,
466641,00000418,false,Rx,0,8,0D,02,5E,FE,A0,FE,20,00,
466672,00000418,false,Rx,0,8,34,02,37,FE,92,FE,24,00,
466672,00000418,false,Rx,0,8,1C,02,57,FE,CC,FE,2A,00,
466673,00000418,false,Rx,0,8,1D,02,4A,FE,84,FE,2C,00,
466673,00000418,false,Rx,0,8,2E,02,39,FE,CD,FE,27,00,
466687,00000418,false,Rx,0,8,0F,02,54,FE,8B,FE,1E,00,
466687,00000418,false,Rx,0,8,36,02,3C,FE,BB,FE,19,00,
466944,00000418,false,Rx,0,8,09,02,54,FE,92,FE,1C,00,
466955,00000418,false,Rx,0,8,39,02,2B,FE,A0,FE,24,00,
466955,00000418,false,Rx,0,8,11,02,55,FE,CD,FE,29,00,
466981,00000418,false,Rx,0,8,25,02,3B,FE,6C,FE,29,00,
466981,00000418,false,Rx,0,8,27,02,4A,FE,F2,FE,25,00,
466999,00000418,false,Rx,0,8,20,02,49,FE,72,FE,23,00,
466999,00000418,false,Rx,0,8,26,02,3A,FE,D5,FE,25,00,
466999,00000418,false,Rx,0,8,1E,02,49,FE,7F,FE,26,00,
467000,00000418,false,Rx,0,8,19,02,45,FE,B9,FE,23,00,
467011,00000418,false,Rx,0,8,25,02,47,FE,7C,FE,22,00,
467011,00000418,false,Rx,0,8,22,02,44,FE,BD,FE,25,00,
467024,00000418,false,Rx,0,8,25,02,45,FE,75,FE,2C,00,
467024,00000418,false,Rx,0,8,1B,02,4D,FE,C7,FE,30,00,
467038,00000418,false,Rx,0,8,31,02,2E,FE,7C,FE,2B,00,
467047,00000418,false,Rx,0,8,0C,02,51,FE,A5,FE,22,00,
467047,00000418,false,Rx,0,8,35,02,38,FE,BF,FE,1D,00,
467048,00000418,false,Rx,0,8,12,02,49,FE,82,FE,1F,00,
467054,00000418,false,Rx,0,8,31,02,44,FE,DC,FE,24,00,
467068,00000418,false,Rx,0,8,1E,02,3E,FE,81,FE,27,00,
466826,00000418,false,Rx,0,8,21,02,4C,FE,B2,FE,26,00,
466826,00000418,false,Rx,0,8,25,02,3B,FE,6C,FE,25,00,
466827,00000418,false,Rx,0,8,15,02,53,FE,B5,FE,28,00,
466835,00000418,false,Rx,0,8,35,02,31,FE,B5,FE,2A,00,
466844,00000418,false,Rx,0,8,14,02,52,FE,88,FE,29,00,
466859,00000418,false,Rx,0,8,35,02,35,FE,C8,FE,23,00,
466859,00000418,false,Rx,0,8,1E,02,51,FE,80,FE,21,00,
466886,00000610,false,Rx,0,2,02,0F,00,00,00,00,00,00,
466887,00000418,false,Rx,0,8,23,02,43,FE,B7,FE,26,00,
466887,00000418,false,Rx,0,8,27,02,44,FE,7C,FE,33,00,
466887,00000418,false,Rx,0,8,1B,02,4D,FE,B0,FE,40,00,
466903,00000418,false,Rx,0,8,32,02,3A,FE,B4,FE,44,00,
466904,00000418,false,Rx,0,8,1A,02,4E,FE,83,FE,3F,00,
466904,00000418,false,Rx,0,8,34,02,3E,FE,CD,FE,32,00,
466924,00000418,false,Rx,0,8,1A,02,4C,FE,82,FE,26,00,
466924,00000418,false,Rx,0,8,2F,02,3F,FE,C6,FE,1F,00,
466941,00000418,false,Rx,0,8,23,02,44,FE,71,FE,20,00,
466941,00000418,false,Rx,0,8,29,02,3B,FE,CC,FE,26,00,
466942,00000418,false,Rx,0,8,20,02,3E,FE,7E,FE,2C,00,
466942,00000418,false,Rx,0,8,27,02,48,FE,CC,FE,2C,00,
467219,00000418,false,Rx,0,8,28,02,2F,FE,75,FE,27,00,
467219,00000418,false,Rx,0,8,2B,02,4A,FE,DA,FE,24,00,
467237,00000418,false,Rx,0,8,28,02,30,FE,66,FE,26,00,
467237,00000418,false,Rx,0,8,35,02,41,FE,DD,FE,2B,00,
467238,00000418,false,Rx,0,8,22,02,41,FE,83,FE,2E,00,
467272,00000418,false,Rx,0,8,3B,02,38,FE,C9,FE,2B,00,
467273,00000418,false,Rx,0,8,10,02,48,FE,92,FE,27,00,
467273,00000418,false,Rx,0,8,3F,02,2F,FE,B9,FE,24,00,
467273,00000418,false,Rx,0,8,20,02,46,FE,E1,FE,23,00,
467290,00000418,false,Rx,0,8,2F,02,2C,FE,78,FE,24,00,
467290,00000418,false,Rx,0,8,28,02,43,FE,C5,FE,27,00,
467291,00000418,false,Rx,0,8,27,02,3D,FE,7D,FE,2A,00,
467312,00000418,false,Rx,0,8,28,02,2B,FE,CA,FE,29,00,
467313,00000418,false,Rx,0,8,30,02,52,FE,96,FE,23,00,
467080,00000418,false,Rx,0,8,30,02,29,FE,D3,FE,1B,00,
467081,00000418,false,Rx,0,8,21,02,42,FE,87,FE,18,00,
467081,00000418,false,Rx,0,8,28,02,32,FE,C7,FE,1C,00,
467081,00000418,false,Rx,0,8,31,02,3B,FE,90,FE,24,00,
467098,00000418,false,Rx,0,8,21,02,35,FE,CB,FE,29,00,
467098,00000418,false,Rx,0,8,2C,02,3F,FE,69,FE,2B,00,
467098,00000418,false,Rx,0,8,1A,02,42,FE,C3,FE,2C,00,
467113,00000418,false,Rx,0,8,40,02,24,FE,A5,FE,2D,00,
467113,00000418,false,Rx,0,8,16,02,4A,FE,7C,FE,2D,00,
467113,00000418,false,Rx,0,8,3B,02,30,FE,CB,FE,2B,00,
467138,00000418,false,Rx,0,8,23,02,3C,FE,75,FE,2C,00,
467138,00000611,false,Rx,0,1,01,00,00,00,00,00,00,00,
467153,00000418,false,Rx,0,8,31,02,48,FE,CE,FE,32,00,
467153,00000418,false,Rx,0,8,2A,02,34,FE,72,FE,3D,00,
467153,00000418,false,Rx,0,8,2D,02,4B,FE,CD,FE,42,00,
467153,00000418,false,Rx,0,8,3E,02,33,FE,BA,FE,3C,00,
467165,00000418,false,Rx,0,8,25,02,4E,FE,86,FE,2E,00,
467166,00000418,false,Rx,0,8,37,02,36,FE,C7,FE,22,00,
467183,00000418,false,Rx,0,8,33,02,49,FE,7B,FE,23,00,
467184,00000418,false,Rx,0,8,36,02,47,FE,CF,FE,2E,00,
467457,00000418,false,Rx,0,8,46,02,3C,FE,87,FE,36,00,
467458,00000418,false,Rx,0,8,23,02,60,FE,A6,FE,34,00,
467458,00000418,false,Rx,0,8,53,02,39,FE,BC,FE,2B,00,
467458,00000418,false,Rx,0,8,29,02,55,FE,7D,FE,25,00,
467475,00000418,false,Rx,0,8,4D,02,52,FE,C0,FE,27,00,
467489,00000418,false,Rx,0,8,38,02,56,FE,7C,FE,2B,00,
467490,00000418,false,Rx,0,8,4F,02,53,FE,CB,FE,2B,00,
467490,00000418,false,Rx,0,8,3E,02,52,FE,7E,FE,26,00,
467499,00000418,false,Rx,0,8,4B,02,60,FE,C8,FE,23,00,
467499,00000418,false,Rx,0,8,4F,02,4C,FE,7A,FE,25,00,
467512,00000418,false,Rx,0,8,42,02,6D,FE,BC,FE,2C,00,
467527,00000418,false,Rx,0,8,5C,02,5B,FE,9E,FE,30,00,
467528,00000418,false,Rx,0,8,45,02,7C,FE,9B,FE,2F,00,
467544,00000418,false,Rx,0,8,5E,02,54,FE,9C,FE,2C,00,
467544,00000418,false,Rx,0,8,4A,02,81,FE,B4,FE,2D,00,
467545,00000418,false,Rx,0,8,61,02,5F,FE,81,FE,31,00,
467555,00000418,false,Rx,0,8,52,02,7F,FE,BE,FE,35,00,
467555,00000418,false,Rx,0,8,56,02,6D,FE,7B,FE,36,00,
467564,00000418,false,Rx,0,8,66,02,6C,FE,BC,FE,32,00,
467577,00000418,false,Rx,0,8,52,02,8C,FE,7E,FE,2C,00,
467577,00000418,false,Rx,0,8,6D,02,7A,FE,A2,FE,27,00,
467342,00000418,false,Rx,0,8,55,02,8C,FE,A5,FE,28,00,
467342,00000418,false,Rx,0,8,60,02,82,FE,78,FE,2C,00,
467361,00000418,false,Rx,0,8,76,02,7A,FE,B9,FE,30,00,
467361,00000418,false,Rx,0,8,5D,02,99,FE,97,FE,31,00,
467362,00000418,false,Rx,0,8,63,02,8C,FE,78,FE,2E,00,
467370,00000418,false,Rx,0,8,76,02,89,FE,A6,FE,2C,00,
467370,00000610,false,Rx,0,2,02,0F,00,00,00,00,00,00,
467370,00000418,false,Rx,0,8,6A,02,9D,FE,AF,FE,2E,00,
467383,00000418,false,Rx,0,8,69,02,9F,FE,79,FE,34,00,
467383,00000418,false,Rx,0,8,7C,02,97,FE,77,FE,38,00,
467391,00000418,false,Rx,0,8,7B,02,93,FE,AE,FE,38,00,
467404,00000418,false,Rx,0,8,74,02,99,FE,BF,FE,38,00,
467411,00000418,false,Rx,0,8,6E,02,B9,FE,87,FE,3A,00,
467411,00000418,false,Rx,0,8,77,02,AF,FE,76,FE,3D,00,
467419,00000418,false,Rx,0,8,84,02,9F,FE,83,FE,3F,00,
467439,00000418,false,Rx,0,8,84,02,A3,FE,9F,FE,3F,00,
467439,00000418,false,Rx,0,8,7F,02,A7,FE,A5,FE,3E,00,
467455,00000418,false,Rx,0,8,78,02,A5,FE,BB,FE,41,00,
467455,00000418,false,Rx,0,8,68,02,BA,FE,AC,FE,46,00,
467723,00000418,false,Rx,0,8,5E,02,BC,FE,9B,FE,4A,00,
467723,00000418,false,Rx,0,8,6C,02,CC,FE,92,FE,4C,00,
467744,00000418,false,Rx,0,8,6B,02,CD,FE,84,FE,4D,00,
467745,00000418,false,Rx,0,8,70,02,C7,FE,85,FE,50,00,
467755,00000418,false,Rx,0,8,74,02,C7,FE,8F,FE,55,00,
467755,00000418,false,Rx,0,8,70,02,D5,FE,83,FE,58,00,
467755,00000418,false,Rx,0,8,70,02,C8,FE,91,FE,5A,00,
467776,00000418,false,Rx,0,8,6F,02,C6,FE,95,FE,5B,00,
467776,00000418,false,Rx,0,8,70,02,D2,FE,8F,FE,5E,00,
467794,00000418,false,Rx,0,8,70,02,CD,FE,99,FE,62,00,
467794,00000418,false,Rx,0,8,74,02,C9,FE,9A,FE,64,00,
467794,00000418,false,Rx,0,8,6F,02,D6,FE,93,FE,65,00,
467804,00000418,false,Rx,0,8,73,02,CF,FE,9B,FE,69,00,
467804,00000418,false,Rx,0,8,72,02,D0,FE,93,FE,6F,00,
467805,00000418,false,Rx,0,8,72,02,DC,FE,98,FE,74,00,
467820,00000418,false,Rx,0,8,76,02,DE,FE,98,FE,75,00,
467834,00000418,false,Rx,0,8,78,02,D6,FE,A0,FE,73,00,
467834,00000418,false,Rx,0,8,7C,02,E6,FE,A2,FE,76,00,
467596,00000418,false,Rx,0,8,7A,02,D9,FE,9A,FE,7E,00,
467596,00000418,false,Rx,0,8,7E,02,E1,FE,9A,FE,84,00,
467596,00000418,false,Rx,0,8,77,02,E2,FE,93,FE,84,00,
467610,00000418,false,Rx,0,8,7C,02,DF,FE,9A,FE,7D,00,
467611,00000418,false,Rx,0,8,7C,02,E3,FE,9A,FE,76,00,
467640,00000418,false,Rx,0,8,7D,02,E6,FE,94,FE,75,00,
467640,00000418,false,Rx,0,8,7F,02,E8,FE,90,FE,7A,00,
467640,00000611,false,Rx,0,1,01,00,00,00,00,00,00,00,
467651,00000418,false,Rx,0,8,7E,02,E6,FE,93,FE,81,00,
467652,00000418,false,Rx,0,8,7D,02,ED,FE,80,FE,88,00,
467652,00000418,false,Rx,0,8,81,02,E9,FE,96,FE,8C,00,
467652,00000418,false,Rx,0,8,7F,02,E9,FE,8F,FE,8F,00,
467672,00000418,false,Rx,0,8,7F,02,EE,FE,8F,FE,8F,00,
467672,00000418,false,Rx,0,8,88,02,EC,FE,9E,FE,8D,00,
467672,00000418,false,Rx,0,8,81,02,EF,FE,8C,FE,8A,00,
467694,00000418,false,Rx,0,8,7F,02,EF,FE,90,FE,88,00,
467694,00000418,false,Rx,0,8,89,02,F2,FE,8C,FE,88,00,
467975,00000418,false,Rx,0,8,83,02,F3,FE,8D,FE,89,00,
467975,00000418,false,Rx,0,8,81,02,EF,FE,97,FE,8A,00,
467976,00000418,false,Rx,0,8,85,02,F6,FE,8E,FE,89,00,
467976,00000418,false,Rx,0,8,83,02,F6,FE,92,FE,89,00,
468007,00000418,false,Rx,0,8,87,02,F2,FE,87,FE,8B,00,
468007,00000418,false,Rx,0,8,85,02,01,FF,8E,FE,8F,00,
468049,00000418,false,Rx,0,8,84,02,F8,FE,90,FE,92,00,
468049,00000418,false,Rx,0,8,88,02,07,FF,8F,FE,93,00,
468049,00000418,false,Rx,0,8,80,02,FC,FE,92,FE,93,00,
468049,00000418,false,Rx,0,8,84,02,02,FF,97,FE,93,00,
468050,00000418,false,Rx,0,8,82,02,FD,FE,92,FE,93,00,
468050,00000418,false,Rx,0,8,82,02,FE,FE,9D,FE,93,00,
468050,00000418,false,Rx,0,8,7F,02,02,FF,99,FE,93,00,
468069,00000418,false,Rx,0,8,83,02,FF,FE,9E,FE,94,00,
468069,00000418,false,Rx,0,8,85,02,00,FF,A3,FE,96,00,
468070,00000418,false,Rx,0,8,82,02,02,FF,95,FE,98,00,
468070,00000418,false,Rx,0,8,7E,02,05,FF,95,FE,99,00,
467847,00000418,false,Rx,0,8,81,02,02,FF,97,FE,98,00,
467847,00000418,false,Rx,0,8,86,02,04,FF,8F,FE,97,00,
467847,00000418,false,Rx,0,8,83,02,03,FF,9C,FE,97,00,
467848,00000418,false,Rx,0,8,81,02,07,FF,97,FE,97,00,
467867,00000418,false,Rx,0,8,85,02,07,FF,9E,FE,98,00,
467867,00000418,false,Rx,0,8,81,02,0B,FF,8F,FE,98,00,
467867,00000418,false,Rx,0,8,86,02,06,FF,96,FE,99,00,
467867,00000418,false,Rx,0,8,82,02,04,FF,A9,FE,99,00,
467894,00000418,false,Rx,0,8,82,02,0D,FF,97,FE,98,00,
467894,00000610,false,Rx,0,2,02,0F,00,00,00,00,00,00,
467894,00000418,false,Rx,0,8,87,02,08,FF,98,FE,98,00,
467894,00000418,false,Rx,0,8,85,02,0E,FF,96,FE,97,00,
467918,00000418,false,Rx,0,8,8B,02,0A,FF,A5,FE,98,00,
467918,00000418,false,Rx,0,8,8B,02,0C,FF,AF,FE,9A,00,
467918,00000418,false,Rx,0,8,89,02,11,FF,9E,FE,9C,00,
467918,00000418,false,Rx,0,8,86,02,12,FF,A0,FE,9E,00,
467952,00000418,false,Rx,0,8,86,02,1F,FF,97,FE,9E,00,
467953,00000418,false,Rx,0,8,8A,02,0E,FF,AF,FE,9C,00,
467953,00000418,false,Rx,0,8,88,02,10,FF,A0,FE,99,00,
468234,00000418,false,Rx,0,8,86,02,0B,FF,9D,FE,97,00,
468235,00000418,false,Rx,0,8,92,02,0E,FF,B6,FE,96,00,
468235,00000418,false,Rx,0,8,81,02,26,FF,93,FE,95,00,
468235,00000418,false,Rx,0,8,86,02,15,FF,A3,FE,95,00,
468235,00000418,false,Rx,0,8,85,02,0E,FF,9F,FE,94,00,
468261,00000418,false,Rx,0,8,7F,02,0C,FF,9A,FE,94,00,
468261,00000418,false,Rx,0,8,81,02,18,FF,99,FE,94,00,
468261,00000418,false,Rx,0,8,86,02,0F,FF,98,FE,94,00,
468307,00000418,false,Rx,0,8,81,02,0B,FF,A0,FE,92,00,
468307,00000418,false,Rx,0,8,86,02,1B,FF,AC,FE,92,00,
468307,00000418,false,Rx,0,8,7F,02,0D,FF,97,FE,93,00,
468307,00000418,false,Rx,0,8,80,02,11,FF,9E,FE,94,00,
468308,00000418,false,Rx,0,8,82,02,15,FF,95,FE,93,00,
468106,00000418,false,Rx,0,8,8C,02,16,FF,92,FE,91,00,
468107,00000418,false,Rx,0,8,84,02,16,FF,9D,FE,8F,00,
468107,00000418,false,Rx,0,8,87,02,0E,FF,96,FE,90,00,
468107,00000418,false,Rx,0,8,83,02,11,FF,9F,FE,93,00,
468107,00000418,false,Rx,0,8,84,02,11,FF,99,FE,94,00,
468108,00000418,false,Rx,0,8,88,02,0E,FF,A1,FE,92,00,
468144,00000418,false,Rx,0,8,83,02,11,FF,9E,FE,91,00,
468144,00000418,false,Rx,0,8,87,02,11,FF,82,FE,94,00,
468144,00000418,false,Rx,0,8,86,02,11,FF,97,FE,99,00,
468144,00000418,false,Rx,0,8,84,02,10,FF,98,FE,98,00,
468145,00000418,false,Rx,0,8,81,02,10,FF,9E,FE,92,00,
468145,00000418,false,Rx,0,8,80,02,13,FF,9A,FE,8C,00,
468145,00000418,false,Rx,0,8,82,02,10,FF,9D,FE,8C,00,
468145,00000418,false,Rx,0,8,83,02,0D,FF,98,FE,93,00,
468209,00000611,false,Rx,0,1,01,00,00,00,00,00,00,00,
468209,00000418,false,Rx,0,8,82,02,0D,FF,9C,FE,96,00,
468210,00000418,false,Rx,0,8,86,02,1A,FF,96,FE,92,00,
468210,00000418,false,Rx,0,8,7F,02,0E,FF,9A,FE,89,00,
468210,00000418,false,Rx,0,8,81,02,22,FF,95,FE,83,00,
468210,00000418,false,Rx,0,8,84,02,0F,FF,91,FE,84,00,
468210,00000418,false,Rx,0,8,85,02,13,FF,92,FE,87,00,
468594,00000418,false,Rx,0,8,8F,02,10,FF,B6,FE,87,00,
468594,00000418,false,Rx,0,8,8D,02,19,FF,A5,FE,83,00,
468595,00000418,false,Rx,0,8,83,02,14,FF,92,FE,80,00,
468595,00000418,false,Rx,0,8,86,02,12,FF,A9,FE,81,00,
468595,00000418,false,Rx,0,8,89,02,14,FF,A8,FE,84,00,
468595,00000418,false,Rx,0,8,87,02,18,FF,A9,FE,85,00,
468596,00000418,false,Rx,0,8,82,02,15,FF,99,FE,83,00,
468596,00000418,false,Rx,0,8,84,02,15,FF,9E,FE,7F,00,
468596,00000418,false,Rx,0,8,86,02,16,FF,97,FE,7B,00,
468596,00000418,false,Rx,0,8,85,02,25,FF,90,FE,7A,00,
470748,00000418,false,Rx,0,8,83,02,15,FF,94,FE,7B,00,
470749,00000418,false,Rx,0,8,83,02,21,FF,96,FE,7B,00,
470749,00000418,false,Rx,0,8,81,02,17,FF,94,FE,7A,00,
470749,00000418,false,Rx,0,8,81,02,15,FF,94,FE,78,00,
470750,00000418,false,Rx,0,8,86,02,20,FF,9B,FE,77,00,
470750,00000418,false,Rx,0,8,81,02,16,FF,95,FE,76,00,
470750,00000418,false,Rx,0,8,83,02,15,FF,92,FE,74,00,
470750,00000418,false,Rx,0,8,8E,02,16,FF,A4,FE,71,00,
470750,00000418,false,Rx,0,8,8A,02,18,FF,97,FE,70,00,
470751,00000418,false,Rx,0,8,88,02,16,FF,A9,FE,71,00,
470751,00000418,false,Rx,0,8,82,02,17,FF,96,FE,74,00,
470751,00000418,false,Rx,0,8,81,02,17,FF,98,FE,76,00,
470751,00000418,false,Rx,0,8,80,02,16,FF,8D,FE,75,00,
470752,00000418,false,Rx,0,8,80,02,16,FF,9B,FE,73,00,
470752,00000418,false,Rx,0,8,84,02,1A,FF,A4,FE,72,00,
470752,00000418,false,Rx,0,8,82,02,18,FF,9C,FE,73,00,
470752,00000418,false,Rx,0,8,81,02,1F,FF,9D,FE,72,00,
470752,00000418,false,Rx,0,8,82,02,18,FF,A1,FE,71,00,
470752,00000418,false,Rx,0,8,82,02,19,FF,9D,FE,6F,00,
470753,00000418,false,Rx,0,8,82,02,16,FF,9A,FE,6E,00,
470753,00000610,false,Rx,0,2,02,0F,00,00,00,00,00,00,
470753,00000418,false,Rx,0,8,82,02,1C,FF,9E,FE,6D,00,
470753,00000418,false,Rx,0,8,82,02,16,FF,96,FE,6C,00,
470753,00000418,false,Rx,0,8,81,02,16,FF,9B,FE,6C,00,
470754,00000418,false,Rx,0,8,82,02,14,FF,98,FE,6E,00,
470754,00000418,false,Rx,0,8,83,02,17,FF,8C,FE,70,00,
470754,00000418,false,Rx,0,8,80,02,1B,FF,91,FE,70,00,
470754,00000418,false,Rx,0,8,89,02,16,FF,A9,FE,6D,00,
470754,00000418,false,Rx,0,8,85,02,13,FF,86,FE,6A,00,
470755,00000418,false,Rx,0,8,88,02,15,FF,A8,FE,68,00,
470755,00000418,false,Rx,0,8,84,02,22,FF,95,FE,68,00,
470755,00000418,false,Rx,0,8,82,02,14,FF,95,FE,67,00,
470755,00000418,false,Rx,0,8,83,02,14,FF,95,FE,66,00,
470755,00000418,false,Rx,0,8,83,02,16,FF,90,FE,65,00,
470756,00000418,false,Rx,0,8,83,02,14,FF,94,FE,65,00,
470756,00000418,false,Rx,0,8,83,02,14,FF,94,FE,65,00,
470756,00000418,false,Rx,0,8,83,02,17,FF,92,FE,63,00,
470756,00000418,false,Rx,0,8,83,02,17,FF,95,FE,5F,00,
470756,00000418,false,Rx,0,8,83,02,18,FF,9A,FE,5E,00,
470757,00000418,false,Rx,0,8,97,02,16,FF,BA,FE,5E,00,
470757,00000418,false,Rx,0,8,84,02,17,FF,9B,FE,61,00,
470757,00000418,false,Rx,0,8,80,02,15,FF,97,FE,61,00,
470757,00000418,false,Rx,0,8,81,02,18,FF,A2,FE,60,00,
470757,00000418,false,Rx,0,8,7F,02,10,FF,93,FE,5E,00,
470757,00000418,false,Rx,0,8,7E,02,12,FF,95,FE,5D,00,
470758,00000418,false,Rx,0,8,7E,02,12,FF,98,FE,5C,00,
470758,00000418,false,Rx,0,8,7E,02,12,FF,98,FE,5B,00,
470758,00000418,false,Rx,0,8,7D,02,10,FF,98,FE,59,00,
470758,00000418,false,Rx,0,8,7E,02,11,FF,91,FE,57,00,
470758,00000418,false,Rx,0,8,7D,02,12,FF,96,FE,57,00,
470762,00000418,false,Rx,0,8,7E,02,11,FF,97,FE,58,00,
470762,00000418,false,Rx,0,8,7D,02,0F,FF,97,FE,58,00,
470762,00000418,false,Rx,0,8,7D,02,12,FF,96,FE,58,00,
470763,00000418,false,Rx,0,8,86,02,14,FF,A0,FE,58,00,
470763,00000418,false,Rx,0,8,80,02,17,FF,9B,FE,58,00,
470763,00000418,false,Rx,0,8,86,02,17,FF,90,FE,57,00,
470763,00000418,false,Rx,0,8,82,02,18,FF,95,FE,54,00,
470763,00000611,false,Rx,0,1,01,00,00,00,00,00,00,00,
470764,00000418,false,Rx,0,8,84,02,17,FF,91,FE,51,00,
470764,00000418,false,Rx,0,8,88,02,21,FF,A6,FE,50,00,
470764,00000418,false,Rx,0,8,87,02,19,FF,7F,FE,4F,00,
470764,00000418,false,Rx,0,8,89,02,17,FF,9D,FE,4F,00,
470764,00000418,false,Rx,0,8,86,02,1A,FF,9B,FE,4F,00,
470765,00000418,false,Rx,0,8,83,02,1F,FF,97,FE,51,00,
470776,00000418,false,Rx,0,8,82,02,17,FF,98,FE,53,00,
470776,00000418,false,Rx,0,8,82,02,16,FF,97,FE,54,00,
470776,00000418,false,Rx,0,8,81,02,17,FF,92,FE,52,00,
470777,00000418,false,Rx,0,8,81,02,17,FF,96,FE,4D,00,
471044,00000418,false,Rx,0,8,81,02,18,FF,95,FE,48,00,
471044,00000418,false,Rx,0,8,80,02,18,FF,95,FE,46,00,
471044,00000418,false,Rx,0,8,82,02,17,FF,99,FE,45,00,
471045,00000418,false,Rx,0,8,82,02,18,FF,91,FE,44,00,
471070,00000418,false,Rx,0,8,83,02,17,FF,98,FE,43,00,
471070,00000418,false,Rx,0,8,83,02,19,FF,9E,FE,42,00,
471071,00000418,false,Rx,0,8,81,02,12,FF,9C,FE,42,00,
471071,00000418,false,Rx,0,8,7D,02,14,FF,93,FE,42,00,
471071,00000418,false,Rx,0,8,7F,02,12,FF,95,FE,40,00,
471081,00000418,false,Rx,0,8,7E,02,12,FF,92,FE,3F,00,
471081,00000418,false,Rx,0,8,7F,02,14,FF,95,FE,41,00,
471082,00000418,false,Rx,0,8,7F,02,15,FF,92,FE,44,00,
471082,00000418,false,Rx,0,8,7F,02,15,FF,95,FE,45,00,
471082,00000418,false,Rx,0,8,7F,02,16,FF,95,FE,46,00,
471082,00000418,false,Rx,0,8,7F,02,14,FF,96,FE,47,00,
471082,00000418,false,Rx,0,8,7E,02,15,FF,9B,FE,49,00,
471096,00000418,false,Rx,0,8,7F,02,15,FF,93,FE,4B,00,
471096,00000418,false,Rx,0,8,7F,02,14,FF,9A,FE,4B,00,
471096,00000418,false,Rx,0,8,7F,02,13,FF,94,FE,49,00,
471096,00000418,false,Rx,0,8,7D,02,11,FF,93,FE,46,00,
471106,00000418,false,Rx,0,8,7E,02,13,FF,95,FE,44,00,
471106,00000418,false,Rx,0,8,7E,02,13,FF,91,FE,42,00,
471106,00000418,false,Rx,0,8,7E,02,12,FF,8F,FE,40,00,
471106,00000418,false,Rx,0,8,7C,02,13,FF,91,FE,3F,00,
471124,00000418,false,Rx,0,8,7E,02,12,FF,94,FE,3E,00,
471125,00000418,false,Rx,0,8,7E,02,13,FF,93,FE,3E,00,
471125,00000610,false,Rx,0,2,02,0F,00,00,00,00,00,00,
471141,00000418,false,Rx,0,8,7E,02,13,FF,95,FE,3E,00,
471141,00000418,false,Rx,0,8,7E,02,12,FF,93,FE,3E,00,
471142,00000418,false,Rx,0,8,80,02,12,FF,8F,FE,3E,00,
471142,00000418,false,Rx,0,8,7F,02,14,FF,92,FE,3D,00,
471142,00000418,false,Rx,0,8,7D,02,11,FF,92,FE,3C,00,
471142,00000418,false,Rx,0,8,7E,02,15,FF,97,FE,39,00,
471152,00000418,false,Rx,0,8,80,02,13,FF,93,FE,36,00,
471153,00000418,false,Rx,0,8,7D,02,15,FF,94,FE,35,00,
471153,00000418,false,Rx,0,8,7F,02,14,FF,96,FE,36,00,
471153,00000418,false,Rx,0,8,7E,02,13,FF,95,FE,37,00,
471153,00000418,false,Rx,0,8,7F,02,14,FF,97,FE,37,00,
470918,00000418,false,Rx,0,8,7F,02,15,FF,99,FE,37,00,
470918,00000418,false,Rx,0,8,81,02,13,FF,99,FE,36,00,
470919,00000418,false,Rx,0,8,80,02,14,FF,99,FE,35,00,
470928,00000418,false,Rx,0,8,7F,02,17,FF,90,FE,35,00,
470929,00000418,false,Rx,0,8,7D,02,13,FF,93,FE,35,00,
470929,00000418,false,Rx,0,8,7F,02,14,FF,95,FE,33,00,
470929,00000418,false,Rx,0,8,7D,02,14,FF,91,FE,32,00,
470929,00000418,false,Rx,0,8,7E,02,14,FF,95,FE,31,00,
470929,00000418,false,Rx,0,8,7D,02,14,FF,90,FE,30,00,
470930,00000418,false,Rx,0,8,7E,02,13,FF,93,FE,31,00,
470956,00000418,false,Rx,0,8,7D,02,13,FF,91,FE,31,00,
470956,00000418,false,Rx,0,8,82,02,19,FF,9B,FE,30,00,
470956,00000418,false,Rx,0,8,83,02,17,FF,91,FE,2F,00,
470956,00000418,false,Rx,0,8,82,02,18,FF,91,FE,2E,00,
470957,00000418,false,Rx,0,8,84,02,1A,FF,96,FE,2E,00,
470957,00000418,false,Rx,0,8,84,02,1A,FF,91,FE,2F,00,
470985,00000418,false,Rx,0,8,82,02,1B,FF,92,FE,2E,00,
470985,00000418,false,Rx,0,8,83,02,1C,FF,92,FE,2E,00,
470985,00000418,false,Rx,0,8,84,02,1D,FF,93,FE,2D,00,
470986,00000418,false,Rx,0,8,84,02,1C,FF,99,FE,2E,00,
470986,00000418,false,Rx,0,8,85,02,1B,FF,99,FE,2E,00,
470986,00000418,false,Rx,0,8,84,02,1D,FF,99,FE,2E,00,
470986,00000418,false,Rx,0,8,80,02,1C,FF,9E,FE,2D,00,
470986,00000418,false,Rx,0,8,90,02,25,FF,A8,FE,0F,00,
470987,00000418,false,Rx,0,8,83,02,29,FF,95,FE,0F,00,
470987,00000418,false,Rx,0,8,8E,02,1F,FF,AA,FE,10,00,
470987,00000418,false,Rx,0,8,88,02,20,FF,85,FE,0F,00,
470987,00000418,false,Rx,0,8,8E,02,2F,FF,A8,FE,0D,00,
470998,00000418,false,Rx,0,8,84,02,1D,FF,8E,FE,0D,00,
470998,00000418,false,Rx,0,8,8D,02,27,FF,AF,FE,0D,00,
470998,00000418,false,Rx,0,8,85,02,1E,FF,94,FE,0E,00,
471027,00000418,false,Rx,0,8,85,02,1F,FF,9B,FE,0F,00,
471028,00000418,false,Rx,0,8,84,02,20,FF,98,FE,10,00,
471028,00000418,false,Rx,0,8,85,02,21,FF,95,FE,10,00,
471028,00000418,false,Rx,0,8,8C,02,31,FF,9B,FE,0E,00,
471028,00000418,false,Rx,0,8,85,02,22,FF,9C,FE,0B,00,
471298,00000418,false,Rx,0,8,8D,02,2B,FF,A1,FE,08,00,
471299,00000418,false,Rx,0,8,89,02,20,FF,A3,FE,08,00,
471299,00000418,false,Rx,0,8,85,02,22,FF,8A,FE,09,00,
471299,00000418,false,Rx,0,8,88,02,22,FF,9D,FE,0A,00,
471299,00000418,false,Rx,0,8,83,02,26,FF,94,FE,09,00,
471299,00000610,false,Rx,0,2,02,0F,00,00,00,00,00,00,
471300,00000418,false,Rx,0,8,83,02,23,FF,8D,FE,09,00,
471300,00000418,false,Rx,0,8,83,02,22,FF,90,FE,09,00,
471313,00000418,false,Rx,0,8,84,02,1F,FF,89,FE,08,00,
471314,00000418,false,Rx,0,8,84,02,22,FF,8D,FE,07,00,
471314,00000418,false,Rx,0,8,82,02,21,FF,97,FE,07,00,
471314,00000418,false,Rx,0,8,83,02,1F,FF,98,FE,0B,00,
471314,00000418,false,Rx,0,8,86,02,25,FF,9E,FE,12,00,
471354,00000418,false,Rx,0,8,85,02,24,FF,91,FE,19,00,
471354,00000418,false,Rx,0,8,83,02,1E,FF,93,FE,1B,00,
471355,00000418,false,Rx,0,8,84,02,1F,FF,90,FE,1A,00,
471355,00000418,false,Rx,0,8,83,02,21,FF,93,FE,19,00,
471355,00000418,false,Rx,0,8,84,02,21,FF,8F,FE,1A,00,
471355,00000418,false,Rx,0,8,83,02,21,FF,8F,FE,1A,00,
471355,00000418,false,Rx,0,8,85,02,23,FF,95,FE,17,00,
471356,00000418,false,Rx,0,8,87,02,1D,FF,8D,FE,11,00,
471356,00000418,false,Rx,0,8,88,02,1F,FF,94,FE,0C,00,
471356,00000418,false,Rx,0,8,88,02,1F,FF,8F,FE,0C,00,
471356,00000418,false,Rx,0,8,87,02,21,FF,95,FE,11,00,
471183,00000418,false,Rx,0,8,88,02,1E,FF,9B,FE,16,00,
471183,00000418,false,Rx,0,8,86,02,1E,FF,94,FE,18,00,
471183,00000418,false,Rx,0,8,86,02,1F,FF,93,FE,17,00,
471184,00000418,false,Rx,0,8,87,02,20,FF,94,FE,14,00,
471184,00000418,false,Rx,0,8,8E,02,26,FF,AD,FE,12,00,
471184,00000418,false,Rx,0,8,86,02,20,FF,98,FE,10,00,
471184,00000418,false,Rx,0,8,8D,02,20,FF,8A,FE,10,00,
471184,00000418,false,Rx,0,8,87,02,1E,FF,99,FE,10,00,
471185,00000418,false,Rx,0,8,87,02,2B,FF,94,FE,10,00,
471185,00000418,false,Rx,0,8,86,02,20,FF,97,FE,0F,00,
471185,00000418,false,Rx,0,8,86,02,1E,FF,9A,FE,0D,00,
471185,00000418,false,Rx,0,8,86,02,1D,FF,96,FE,0C,00,
471185,00000418,false,Rx,0,8,87,02,23,FF,96,FE,0D,00,
471186,00000418,false,Rx,0,8,86,02,20,FF,94,FE,0F,00,
471186,00000418,false,Rx,0,8,92,02,1F,FF,B5,FE,0E,00,
471186,00000611,false,Rx,0,1,01,00,00,00,00,00,00,00,
471186,00000418,false,Rx,0,8,89,02,1E,FF,A0,FE,0C,00,
471186,00000418,false,Rx,0,8,86,02,20,FF,99,FE,09,00,
471187,00000418,false,Rx,0,8,8A,02,20,FF,A1,FE,0A,00,
471187,00000418,false,Rx,0,8,86,02,21,FF,95,FE,0D,00,
471187,00000418,false,Rx,0,8,87,02,20,FF,94,FE,0E,00,
471187,00000418,false,Rx,0,8,86,02,1D,FF,96,FE,0D,00,
471187,00000418,false,Rx,0,8,86,02,23,FF,94,FE,0C,00,
471187,00000418,false,Rx,0,8,83,02,1A,FF,90,FE,0C,00,
471200,00000418,false,Rx,0,8,86,02,1E,FF,96,FE,0D,00,
471200,00000418,false,Rx,0,8,86,02,1E,FF,99,FE,0C,00,
471223,00000418,false,Rx,0,8,87,02,21,FF,96,FE,09,00,
471224,00000418,false,Rx,0,8,95,02,31,FF,90,FE,07,00,
471246,00000418,false,Rx,0,8,86,02,2C,FF,93,FE,0A,00,
471246,00000418,false,Rx,0,8,86,02,1E,FF,93,FE,10,00,
471247,00000418,false,Rx,0,8,87,02,1F,FF,94,FE,14,00,
471247,00000418,false,Rx,0,8,89,02,1E,FF,A2,FE,12,00,
471274,00000418,false,Rx,0,8,86,02,20,FF,96,FE,0F,00,
471274,00000418,false,Rx,0,8,88,02,1F,FF,9E,FE,0E,00,
471274,00000418,false,Rx,0,8,86,02,1F,FF,99,FE,0F,00,
471275,00000418,false,Rx,0,8,8E,02,1D,FF,AC,FE,0D,00,
471275,00000418,false,Rx,0,8,86,02,2A,FF,92,FE,09,00,
471285,00000418,false,Rx,0,8,86,02,1E,FF,94,FE,07,00,
471286,00000418,false,Rx,0,8,86,02,28,FF,92,FE,0B,00,
471563,00000418,false,Rx,0,8,85,02,1E,FF,95,FE,12,00,
471563,00000418,false,Rx,0,8,89,02,26,FF,83,FE,17,00,
471582,00000418,false,Rx,0,8,88,02,20,FF,8E,FE,15,00,
471582,00000418,false,Rx,0,8,88,02,1F,FF,8C,FE,0F,00,
471582,00000418,false,Rx,0,8,86,02,1E,FF,91,FE,09,00,
471597,00000418,false,Rx,0,8,88,02,1E,FF,99,FE,08,00,
471598,00000418,false,Rx,0,8,8B,02,1D,FF,87,FE,0A,00,
471613,00000418,false,Rx,0,8,87,02,1E,FF,96,FE,0B,00,
471614,00000418,false,Rx,0,8,86,02,1E,FF,96,FE,08,00,
471614,00000418,false,Rx,0,8,86,02,1F,FF,92,FE,05,00,
471632,00000418,false,Rx,0,8,86,02,20,FF,97,FE,05,00,
471633,00000418,false,Rx,0,8,88,02,1F,FF,99,FE,0A,00,
471651,00000418,false,Rx,0,8,86,02,23,FF,9D,FE,11,00,
471651,00000418,false,Rx,0,8,8A,02,23,FF,8A,FE,15,00,
471651,00000418,false,Rx,0,8,89,02,1E,FF,9C,FE,13,00,
471662,00000418,false,Rx,0,8,86,02,20,FF,97,FE,0E,00,
471662,00000610,false,Rx,0,2,02,0F,00,00,00,00,00,00,
471662,00000418,false,Rx,0,8,86,02,1E,FF,98,FE,0A,00,
471425,00000418,false,Rx,0,8,87,02,1E,FF,96,FE,08,00,
471425,00000418,false,Rx,0,8,86,02,27,FF,97,FE,08,00,
471451,00000418,false,Rx,0,8,87,02,1F,FF,96,FE,0B,00,
471451,00000418,false,Rx,0,8,8A,02,1F,FF,A5,FE,0F,00,
471452,00000418,false,Rx,0,8,89,02,1F,FF,9D,FE,11,00,
471480,00000418,false,Rx,0,8,86,02,1D,FF,96,FE,10,00,
471480,00000418,false,Rx,0,8,86,02,22,FF,8B,FE,0C,00,
471481,00000418,false,Rx,0,8,85,02,21,FF,97,FE,0A,00,
471481,00000418,false,Rx,0,8,86,02,1F,FF,9E,FE,0C,00,
471499,00000418,false,Rx,0,8,86,02,2A,FF,95,FE,0F,00,
471500,00000418,false,Rx,0,8,8B,02,20,FF,A5,FE,0F,00,
471500,00000418,false,Rx,0,8,85,02,1F,FF,92,FE,0C,00,
471500,00000418,false,Rx,0,8,84,02,1E,FF,93,FE,08,00,
471531,00000418,false,Rx,0,8,86,02,1F,FF,98,FE,09,00,
471531,00000418,false,Rx,0,8,85,02,1E,FF,8F,FE,0B,00,
471531,00000418,false,Rx,0,8,87,02,1F,FF,93,FE,0B,00,
471809,00000418,false,Rx,0,8,86,02,24,FF,96,FE,07,00,
471810,00000418,false,Rx,0,8,88,02,21,FF,9D,FE,04,00,
471810,00000418,false,Rx,0,8,87,02,1E,FF,9A,FE,06,00,
471810,00000418,false,Rx,0,8,86,02,1F,FF,98,FE,0A,00,
471822,00000418,false,Rx,0,8,86,02,1E,FF,97,FE,0E,00,
471822,00000418,false,Rx,0,8,8B,02,1E,FF,98,FE,0E,00,
471822,00000418,false,Rx,0,8,86,02,29,FF,97,FE,0A,00,
471850,00000418,false,Rx,0,8,87,02,1E,FF,96,FE,07,00,
471850,00000418,false,Rx,0,8,8A,02,22,FF,87,FE,05,00,
471850,00000418,false,Rx,0,8,86,02,1D,FF,91,FE,06,00,
471850,00000418,false,Rx,0,8,89,02,2A,FF,9C,FE,09,00,
471862,00000418,false,Rx,0,8,86,02,1D,FF,91,FE,0B,00,
471863,00000418,false,Rx,0,8,88,02,22,FF,84,FE,0C,00,
471869,00000418,false,Rx,0,8,87,02,1D,FF,8F,FE,0B,00,
471870,00000418,false,Rx,0,8,85,02,22,FF,98,FE,09,00,
471886,00000611,false,Rx,0,1,01,00,00,00,00,00,00,00,
471886,00000418,false,Rx,0,8,87,02,1E,FF,95,FE,07,00,
471898,00000418,false,Rx,0,8,87,02,1E,FF,90,FE,09,00,
471898,00000418,false,Rx,0,8,85,02,1F,FF,92,FE,0C,00,
471913,00000418,false,Rx,0,8,87,02,1D,FF,96,FE,0F,00,
471913,00000418,false,Rx,0,8,8A,02,2A,FF,9D,FE,0E,00,
471928,00000418,false,Rx,0,8,89,02,1E,FF,99,FE,09,00,
471928,00000418,false,Rx,0,8,87,02,1C,FF,9A,FE,05,00,
471685,00000418,false,Rx,0,8,85,02,21,FF,92,FE,04,00,
471685,00000418,false,Rx,0,8,8F,02,1C,FF,AC,FE,06,00,
471705,00000418,false,Rx,0,8,86,02,1D,FF,95,FE,09,00,
471705,00000418,false,Rx,0,8,89,02,1D,FF,9A,FE,0A,00,
471712,00000418,false,Rx,0,8,8E,02,1F,FF,A5,FE,09,00,
471713,00000418,false,Rx,0,8,8A,02,28,FF,96,FE,06,00,
471750,00000418,false,Rx,0,8,85,02,26,FF,91,FE,05,00,
471750,00000418,false,Rx,0,8,89,02,1D,FF,9C,FE,05,00,
471759,00000418,false,Rx,0,8,89,02,22,FF,9D,FE,07,00,
471759,00000418,false,Rx,0,8,8A,02,1C,FF,9E,FE,0A,00,
471759,00000418,false,Rx,0,8,86,02,1E,FF,93,FE,0B,00,
471759,00000418,false,Rx,0,8,86,02,1D,FF,93,FE,0B,00,
471760,00000418,false,Rx,0,8,8A,02,1E,FF,9F,FE,0A,00,
471770,00000418,false,Rx,0,8,89,02,21,FF,8D,FE,0B,00,
471803,00000418,false,Rx,0,8,88,02,22,FF,83,FE,0C,00,
471803,00000418,false,Rx,0,8,86,02,27,FF,94,FE,0D,00,
471803,00000418,false,Rx,0,8,86,02,1E,FF,97,FE,0B,00,
471804,00000418,false,Rx,0,8,88,02,1F,FF,A0,FE,07,00,
472074,00000418,false,Rx,0,8,87,02,1E,FF,97,FE,04,00,
472075,00000418,false,Rx,0,8,86,02,1C,FF,96,FE,04,00,
472075,00000418,false,Rx,0,8,90,02,21,FF,B1,FE,06,00,
472081,00000418,false,Rx,0,8,86,02,1D,FF,94,FE,08,00,
472082,00000418,false,Rx,0,8,86,02,1E,FF,94,FE,09,00,
472148,00000418,false,Rx,0,8,87,02,1F,FF,96,FE,09,00,
472148,00000418,false,Rx,0,8,89,02,21,FF,A0,FE,09,00,
472149,00000418,false,Rx,0,8,8B,02,1E,FF,A8,FE,0A,00,
472149,00000418,false,Rx,0,8,88,02,1E,FF,8B,FE,0B,00,
472149,00000418,false,Rx,0,8,87,02,1D,FF,95,FE,0A,00,
472149,00000418,false,Rx,0,8,86,02,1F,FF,96,FE,0B,00,
472149,00000418,false,Rx,0,8,86,02,1F,FF,95,FE,0C,00,
472150,00000418,false,Rx,0,8,84,02,1E,FF,9B,FE,0D,00,
472150,00000418,false,Rx,0,8,86,02,1D,FF,96,FE,0C,00,
472165,00000418,false,Rx,0,8,85,02,26,FF,92,FE,0B,00,
472165,00000610,false,Rx,0,2,02,0F,00,00,00,00,00,00,
472165,00000418,false,Rx,0,8,86,02,26,FF,96,FE,09,00,
472176,00000418,false,Rx,0,8,89,02,1E,FF,A0,FE,08,00,
472176,00000418,false,Rx,0,8,8B,02,1D,FF,95,FE,06,00,
472185,00000418,false,Rx,0,8,87,02,21,FF,93,FE,05,00,
471945,00000418,false,Rx,0,8,86,02,2A,FF,9A,FE,08,00,
471945,00000418,false,Rx,0,8,87,02,1F,FF,98,FE,0D,00,
471965,00000418,false,Rx,0,8,88,02,1F,FF,91,FE,10,00,
471965,00000418,false,Rx,0,8,86,02,1E,FF,9A,FE,0D,00,
471979,00000418,false,Rx,0,8,88,02,1F,FF,97,FE,05,00,
471979,00000418,false,Rx,0,8,89,02,25,FF,A1,FE,01,00,
471979,00000418,false,Rx,0,8,85,02,26,FF,97,FE,05,00,
472005,00000418,false,Rx,0,8,88,02,1D,FF,9C,FE,0C,00,
472006,00000418,false,Rx,0,8,8E,02,22,FF,9A,FE,0E,00,
472006,00000418,false,Rx,0,8,88,02,1D,FF,95,FE,09,00,
472006,00000418,false,Rx,0,8,86,02,1F,FF,93,FE,03,00,
472019,00000418,false,Rx,0,8,87,02,1C,FF,96,FE,04,00,
472019,00000418,false,Rx,0,8,8A,02,25,FF,A2,FE,0B,00,
472043,00000418,false,Rx,0,8,87,02,20,FF,93,FE,10,00,
472057,00000418,false,Rx,0,8,88,02,1C,FF,88,FE,0D,00,
472057,00000418,false,Rx,0,8,87,02,1E,FF,95,FE,06,00,
472057,00000418,false,Rx,0,8,87,02,1F,FF,96,FE,01,00,
472058,00000418,false,Rx,0,8,86,02,1D,FF,97,FE,01,00,
472329,00000418,false,Rx,0,8,86,02,1E,FF,96,FE,04,00,
472330,00000418,false,Rx,0,8,8D,02,26,FF,9A,FE,06,00,
472330,00000418,false,Rx,0,8,86,02,1E,FF,97,FE,08,00,
472352,00000418,false,Rx,0,8,87,02,1E,FF,A1,FE,08,00,
472371,00000418,false,Rx,0,8,86,02,1F,FF,97,FE,09,00,
472371,00000418,false,Rx,0,8,87,02,22,FF,99,FE,09,00,
472371,00000418,false,Rx,0,8,88,02,20,FF,97,FE,09,00,
472372,00000418,false,Rx,0,8,84,02,21,FF,95,FE,08,00,
472381,00000418,false,Rx,0,8,89,02,1F,FF,A0,FE,06,00,
472381,00000418,false,Rx,0,8,86,02,22,FF,97,FE,05,00,
472381,00000611,false,Rx,0,1,01,00,00,00,00,00,00,00,
472401,00000418,false,Rx,0,8,87,02,1E,FF,92,FE,05,00,
472401,00000418,false,Rx,0,8,86,02,2C,FF,9A,FE,06,00,
472427,00000418,false,Rx,0,8,8B,02,1F,FF,83,FE,09,00,
472427,00000418,false,Rx,0,8,87,02,1F,FF,90,FE,0B,00,
472428,00000418,false,Rx,0,8,8C,02,1D,FF,A4,FE,0A,00,
472197,00000418,false,Rx,0,8,89,02,1F,FF,9C,FE,07,00,
472198,00000418,false,Rx,0,8,88,02,1F,FF,92,FE,05,00,
472198,00000418,false,Rx,0,8,8A,02,1F,FF,85,FE,04,00,
472210,00000418,false,Rx,0,8,86,02,1F,FF,92,FE,06,00,
472210,00000418,false,Rx,0,8,86,02,29,FF,8C,FE,09,00,
472210,00000418,false,Rx,0,8,86,02,1F,FF,8B,FE,0B,00,
472210,00000418,false,Rx,0,8,8D,02,1E,FF,96,FE,0A,00,
472210,00000418,false,Rx,0,8,86,02,1F,FF,95,FE,06,00,
472227,00000418,false,Rx,0,8,89,02,20,FF,8A,FE,02,00,
472232,00000418,false,Rx,0,8,8A,02,1F,FF,9F,FE,01,00,
472232,00000418,false,Rx,0,8,87,02,21,FF,95,FE,04,00,
472260,00000418,false,Rx,0,8,8B,02,1E,FF,A3,FE,07,00,
472273,00000418,false,Rx,0,8,87,02,27,FF,95,FE,08,00,
472273,00000418,false,Rx,0,8,86,02,1F,FF,91,FE,06,00,
472273,00000418,false,Rx,0,8,86,02,1E,FF,94,FE,04,00,
472273,00000418,false,Rx,0,8,84,02,21,FF,8E,FE,03,00,
472296,00000418,false,Rx,0,8,8E,02,1F,FF,9E,FE,05,00,
472296,00000418,false,Rx,0,8,87,02,20,FF,96,FE,06,00,
472311,00000418,false,Rx,0,8,85,02,1E,FF,94,FE,06,00,
472311,00000418,false,Rx,0,8,87,02,20,FF,96,FE,06,00,
472312,00000418,false,Rx,0,8,8E,02,1F,FF,A9,FE,08,00,
472582,00000418,false,Rx,0,8,86,02,1F,FF,96,FE,0D,00,
472582,00000418,false,Rx,0,8,89,02,26,FF,8E,FE,0F,00,
472593,00000418,false,Rx,0,8,8E,02,1F,FF,A6,FE,0E,00,
472593,00000418,false,Rx,0,8,8B,02,2A,FF,A3,FE,0A,00,
472608,00000418,false,Rx,0,8,86,02,20,FF,96,FE,08,00,
472608,00000418,false,Rx,0,8,88,02,1F,FF,8F,FE,08,00,
472608,00000418,false,Rx,0,8,86,02,20,FF,96,FE,0B,00,
472617,00000418,false,Rx,0,8,88,02,28,FF,93,FE,0C,00,
472628,00000418,false,Rx,0,8,87,02,28,FF,97,FE,0B,00,
472640,00000418,false,Rx,0,8,86,02,1F,FF,96,FE,09,00,
472641,00000418,false,Rx,0,8,88,02,23,FF,98,FE,07,00,
472658,00000418,false,Rx,0,8,86,02,23,FF,91,FE,06,00,
472658,00000418,false,Rx,0,8,85,02,27,FF,95,FE,07,00,
472671,00000418,false,Rx,0,8,86,02,20,FF,96,FE,09,00,
472671,00000610,false,Rx,0,2,02,0F,00,00,00,00,00,00,
472671,00000418,false,Rx,0,8,8A,02,22,FF,9B,FE,0A,00,
472687,00000418,false,Rx,0,8,86,02,23,FF,97,FE,09,00,
472687,00000418,false,Rx,0,8,88,02,23,FF,99,FE,07,00,
472451,00000418,false,Rx,0,8,88,02,1F,FF,97,FE,06,00,
472451,00000418,false,Rx,0,8,89,02,27,FF,91,FE,06,00,
472459,00000418,false,Rx,0,8,87,02,21,FF,93,FE,07,00,
472459,00000418,false,Rx,0,8,87,02,22,FF,95,FE,06,00,
472459,00000418,false,Rx,0,8,89,02,1F,FF,88,FE,05,00,
472474,00000418,false,Rx,0,8,88,02,1E,FF,9B,FE,05,00,
472483,00000418,false,Rx,0,8,86,02,23,FF,97,FE,05,00,
472483,00000418,false,Rx,0,8,88,02,26,FF,93,FE,07,00,
472498,00000418,false,Rx,0,8,86,02,21,FF,98,FE,0B,00,
472498,00000418,false,Rx,0,8,87,02,22,FF,8E,FE,0E,00,
472517,00000418,false,Rx,0,8,89,02,1F,FF,9D,FE,0F,00,
472518,00000418,false,Rx,0,8,90,02,1F,FF,AC,FE,0D,00,
472528,00000418,false,Rx,0,8,86,02,1E,FF,97,FE,08,00,
472528,00000418,false,Rx,0,8,89,02,20,FF,9F,FE,05,00,
472528,00000418,false,Rx,0,8,87,02,1F,FF,96,FE,05,00,
472542,00000418,false,Rx,0,8,88,02,28,FF,8B,FE,07,00,
472566,00000418,false,Rx,0,8,87,02,20,FF,96,FE,08,00,
472566,00000418,false,Rx,0,8,89,02,2F,FF,9F,FE,06,00,
472837,00000418,false,Rx,0,8,87,02,24,FF,99,FE,05,00,
472837,00000418,false,Rx,0,8,89,02,24,FF,9D,FE,05,00,
472838,00000418,false,Rx,0,8,85,02,20,FF,98,FE,06,00,
472838,00000418,false,Rx,0,8,8C,02,1F,FF,A7,FE,06,00,
472860,00000418,false,Rx,0,8,89,02,20,FF,99,FE,05,00,
472860,00000418,false,Rx,0,8,87,02,21,FF,94,FE,04,00,
472873,00000418,false,Rx,0,8,87,02,1F,FF,94,FE,05,00,
472873,00000418,false,Rx,0,8,8E,02,23,FF,AB,FE,06,00,
472874,00000418,false,Rx,0,8,86,02,22,FF,9B,FE,06,00,
472887,00000418,false,Rx,0,8,85,02,21,FF,90,FE,05,00,
472888,00000611,false,Rx,0,1,01,00,00,00,00,00,00,00,
472888,00000418,false,Rx,0,8,88,02,21,FF,87,FE,06,00,
472895,00000418,false,Rx,0,8,87,02,21,FF,95,FE,08,00,
472895,00000418,false,Rx,0,8,88,02,1F,FF,9C,FE,09,00,
472909,00000418,false,Rx,0,8,92,02,20,FF,B6,FE,07,00,
472926,00000418,false,Rx,0,8,86,02,20,FF,8D,FE,04,00,
472926,00000418,false,Rx,0,8,89,02,27,FF,94,FE,04,00,
472930,00000418,false,Rx,0,8,89,02,21,FF,95,FE,08,00,
472931,00000418,false,Rx,0,8,86,02,1F,FF,96,FE,0E,00,
472708,00000418,false,Rx,0,8,86,02,1F,FF,95,FE,0E,00,
472708,00000418,false,Rx,0,8,88,02,21,FF,91,FE,0A,00,
472709,00000418,false,Rx,0,8,85,02,26,FF,95,FE,05,00,
472723,00000418,false,Rx,0,8,87,02,23,FF,95,FE,04,00,
472723,00000418,false,Rx,0,8,8B,02,24,FF,9C,FE,08,00,
472724,00000418,false,Rx,0,8,86,02,1F,FF,94,FE,0B,00,
472756,00000418,false,Rx,0,8,87,02,1F,FF,90,FE,0B,00,
472756,00000418,false,Rx,0,8,89,02,1F,FF,9A,FE,08,00,
472757,00000418,false,Rx,0,8,87,02,1F,FF,98,FE,07,00,
472757,00000418,false,Rx,0,8,8E,02,20,FF,9A,FE,08,00,
472769,00000418,false,Rx,0,8,8B,02,27,FF,A2,FE,08,00,
472770,00000418,false,Rx,0,8,89,02,1F,FF,8E,FE,06,00,
472770,00000418,false,Rx,0,8,89,02,1F,FF,99,FE,04,00,
472776,00000418,false,Rx,0,8,85,02,1F,FF,91,FE,06,00,
472794,00000418,false,Rx,0,8,8D,02,25,FF,A5,FE,0B,00,
472795,00000418,false,Rx,0,8,86,02,20,FF,98,FE,0D,00,
472812,00000418,false,Rx,0,8,8B,02,20,FF,A2,FE,0A,00,
472812,00000418,false,Rx,0,8,89,02,1F,FF,95,FE,06,00,
472822,00000418,false,Rx,0,8,89,02,23,FF,9E,FE,07,00,
472822,00000418,false,Rx,0,8,87,02,23,FF,8D,FE,0E,00,
472823,00000418,false,Rx,0,8,86,02,1F,FF,98,FE,14,00,
472831,00000418,false,Rx,0,8,89,02,1E,FF,9A,FE,11,00,
472831,00000418,false,Rx,0,8,86,02,21,FF,95,FE,09,00,
473121,00000418,false,Rx,0,8,88,02,24,FF,92,FE,02,00,
473121,00000418,false,Rx,0,8,84,02,23,FF,96,FE,01,00,
473121,00000418,false,Rx,0,8,87,02,27,FF,94,FE,04,00,
473130,00000418,false,Rx,0,8,87,02,2A,FF,8B,FE,06,00,
473130,00000418,false,Rx,0,8,88,02,20,FF,9B,FE,06,00,
473140,00000418,false,Rx,0,8,86,02,24,FF,92,FE,06,00,
473140,00000418,false,Rx,0,8,87,02,20,FF,8B,FE,06,00,
473167,00000418,false,Rx,0,8,85,02,20,FF,92,FE,06,00,
473183,00000418,false,Rx,0,8,91,02,25,FF,B4,FE,04,00,
473184,00000418,false,Rx,0,8,87,02,20,FF,90,FE,03,00,
473184,00000610,false,Rx,0,2,02,0F,00,00,00,00,00,00,
473184,00000418,false,Rx,0,8,85,02,20,FF,91,FE,05,00,
473184,00000418,false,Rx,0,8,86,02,28,FF,94,FE,08,00,
473195,00000418,false,Rx,0,8,85,02,21,FF,95,FE,0A,00,
473195,00000418,false,Rx,0,8,88,02,1E,FF,8C,FE,0A,00,
473195,00000418,false,Rx,0,8,86,02,21,FF,95,FE,07,00,
472960,00000418,false,Rx,0,8,88,02,29,FF,95,FE,07,00,
472971,00000418,false,Rx,0,8,88,02,1F,FF,9E,FE,08,00,
472972,00000418,false,Rx,0,8,8A,02,1F,FF,9C,FE,09,00,
472972,00000418,false,Rx,0,8,88,02,1F,FF,96,FE,08,00,
472995,00000418,false,Rx,0,8,86,02,1F,FF,93,FE,07,00,
472995,00000418,false,Rx,0,8,8B,02,26,FF,86,FE,06,00,
472999,00000418,false,Rx,0,8,85,02,26,FF,92,FE,07,00,
472999,00000418,false,Rx,0,8,86,02,26,FF,94,FE,06,00,
473000,00000418,false,Rx,0,8,88,02,20,FF,92,FE,04,00,
473042,00000418,false,Rx,0,8,87,02,1F,FF,9D,FE,02,00,
473042,00000418,false,Rx,0,8,8F,02,23,FF,B3,FE,03,00,
473043,00000418,false,Rx,0,8,86,02,1D,FF,90,FE,07,00,
473043,00000418,false,Rx,0,8,85,02,1F,FF,96,FE,0A,00,
473043,00000418,false,Rx,0,8,88,02,1F,FF,85,FE,0A,00,
473085,00000418,false,Rx,0,8,87,02,1F,FF,94,FE,07,00,
473085,00000418,false,Rx,0,8,86,02,20,FF,94,FE,06,00,
473085,00000418,false,Rx,0,8,86,02,1F,FF,96,FE,0A,00,
473085,00000418,false,Rx,0,8,91,02,1F,FF,B4,FE,0F,00,
473085,00000418,false,Rx,0,8,87,02,1F,FF,94,FE,11,00,
473356,00000418,false,Rx,0,8,86,02,1E,FF,94,FE,0E,00,
473356,00000418,false,Rx,0,8,87,02,1E,FF,96,FE,09,00,
473356,00000418,false,Rx,0,8,8B,02,1F,FF,A2,FE,05,00,
473379,00000418,false,Rx,0,8,86,02,21,FF,9C,FE,05,00,
473379,00000418,false,Rx,0,8,86,02,1E,FF,96,FE,07,00,
473379,00000418,false,Rx,0,8,86,02,21,FF,91,FE,09,00,
473387,00000418,false,Rx,0,8,92,02,1F,FF,B9,FE,08,00,
473387,00000611,false,Rx,0,1,01,00,00,00,00,00,00,00,
473388,00000418,false,Rx,0,8,84,02,1E,FF,8C,FE,05,00,
473412,00000418,false,Rx,0,8,87,02,21,FF,93,FE,03,00,
473412,00000418,false,Rx,0,8,88,02,29,FF,8A,FE,05,00,
473420,00000418,false,Rx,0,8,91,02,1E,FF,B2,FE,09,00,
473420,00000418,false,Rx,0,8,8C,02,1F,FF,A9,FE,0B,00,
473420,00000418,false,Rx,0,8,87,02,21,FF,91,FE,0A,00,
473443,00000418,false,Rx,0,8,8C,02,1F,FF,A9,FE,07,00,
473223,00000418,false,Rx,0,8,89,02,29,FF,80,FE,07,00,
473223,00000418,false,Rx,0,8,86,02,25,FF,93,FE,0B,00,
473223,00000418,false,Rx,0,8,86,02,21,FF,94,FE,11,00,
473223,00000418,false,Rx,0,8,90,02,28,FF,8D,FE,11,00,
473240,00000418,false,Rx,0,8,87,02,22,FF,95,FE,0B,00,
473240,00000418,false,Rx,0,8,86,02,27,FF,99,FE,05,00,
473240,00000418,false,Rx,0,8,87,02,21,FF,93,FE,04,00,
473241,00000418,false,Rx,0,8,84,02,23,FF,9A,FE,07,00,
473241,00000418,false,Rx,0,8,85,02,1F,FF,97,FE,0B,00,
473268,00000418,false,Rx,0,8,87,02,1F,FF,94,FE,0C,00,
473268,00000418,false,Rx,0,8,85,02,23,FF,97,FE,0B,00,
473268,00000418,false,Rx,0,8,85,02,1F,FF,94,FE,08,00,
473295,00000418,false,Rx,0,8,87,02,2E,FF,90,FE,04,00,
473295,00000418,false,Rx,0,8,8B,02,2C,FF,8B,FE,03,00,
473295,00000418,false,Rx,0,8,86,02,1F,FF,98,FE,04,00,
473296,00000418,false,Rx,0,8,85,02,1F,FF,94,FE,09,00,
473323,00000418,false,Rx,0,8,8B,02,2C,FF,A9,FE,0E,00,
473323,00000418,false,Rx,0,8,8B,02,20,FF,A0,FE,11,00,
473323,00000418,false,Rx,0,8,86,02,1F,FF,94,FE,10,00,
473339,00000418,false,Rx,0,8,86,02,1E,FF,92,FE,0E,00,
473339,00000418,false,Rx,0,8,85,02,1F,FF,95,FE,0F,00,
473339,00000418,false,Rx,0,8,87,02,1F,FF,95,FE,12,00,
473340,00000418,false,Rx,0,8,85,02,20,FF,96,FE,14,00,
473614,00000418,false,Rx,0,8,86,02,20,FF,98,FE,12,00,
473615,00000418,false,Rx,0,8,86,02,23,FF,90,FE,10,00,
473641,00000418,false,Rx,0,8,8F,02,21,FF,B0,FE,0E,00,
473641,00000418,false,Rx,0,8,8A,02,21,FF,89,FE,0C,00,
473641,00000418,false,Rx,0,8,86,02,1E,FF,96,FE,0A,00,
473652,00000418,false,Rx,0,8,8C,02,20,FF,AE,FE,07,00,
473653,00000418,false,Rx,0,8,89,02,1F,FF,98,FE,06,00,
473653,00000418,false,Rx,0,8,86,02,1F,FF,92,FE,07,00,
473653,00000418,false,Rx,0,8,8A,02,28,FF,90,FE,07,00,
473678,00000418,false,Rx,0,8,88,02,1F,FF,94,FE,05,00,
473694,00000418,false,Rx,0,8,8B,02,20,FF,94,FE,02,00,
473695,00000610,false,Rx,0,2,02,0F,00,00,00,00,00,00,
473695,00000418,false,Rx,0,8,88,02,27,FF,A1,FE,01,00,
473695,00000418,false,Rx,0,8,87,02,1F,FF,96,FE,04,00,
473695,00000418,false,Rx,0,8,86,02,1F,FF,95,FE,0A,00,
473695,00000418,false,Rx,0,8,86,02,1E,FF,96,FE,0C,00,
473704,00000418,false,Rx,0,8,88,02,1E,FF,92,FE,0B,00,
473476,00000418,false,Rx,0,8,90,02,21,FF,B8,FE,0A,00,
473476,00000418,false,Rx,0,8,87,02,2A,FF,8F,FE,0A,00,
473490,00000418,false,Rx,0,8,86,02,1F,FF,97,FE,0B,00,
473490,00000418,false,Rx,0,8,93,02,20,FF,AD,FE,0B,00,
473490,00000418,false,Rx,0,8,89,02,20,FF,82,FE,09,00,
473491,00000418,false,Rx,0,8,8A,02,1E,FF,9E,FE,06,00,
473513,00000418,false,Rx,0,8,87,02,1D,FF,9A,FE,03,00,
473513,00000418,false,Rx,0,8,89,02,1E,FF,8B,FE,01,00,
473513,00000418,false,Rx,0,8,8B,02,1E,FF,A0,FE,02,00,
473528,00000418,false,Rx,0,8,90,02,1F,FF,B3,FE,06,00,
473528,00000418,false,Rx,0,8,8C,02,1D,FF,B2,FE,0B,00,
473540,00000418,false,Rx,0,8,86,02,20,FF,95,FE,10,00,
473540,00000418,false,Rx,0,8,8D,02,21,FF,99,FE,10,00,
473556,00000418,false,Rx,0,8,88,02,23,FF,99,FE,0F,00,
473556,00000418,false,Rx,0,8,88,02,1F,FF,8C,FE,0C,00,
473579,00000418,false,Rx,0,8,87,02,1F,FF,96,FE,08,00,
473579,00000418,false,Rx,0,8,87,02,1F,FF,96,FE,06,00,
473595,00000418,false,Rx,0,8,86,02,1E,FF,96,FE,05,00,
473595,00000418,false,Rx,0,8,86,02,1F,FF,91,FE,07,00,
473595,00000418,false,Rx,0,8,87,02,1F,FF,96,FE,09,00,
473596,00000418,false,Rx,0,8,86,02,1E,FF,93,FE,07,00,
473869,00000418,false,Rx,0,8,89,02,21,FF,9C,FE,03,00,
473869,00000418,false,Rx,0,8,88,02,1F,FF,98,FE,01,00,
473888,00000418,false,Rx,0,8,86,02,1F,FF,9A,FE,06,00,
473888,00000418,false,Rx,0,8,93,02,1F,FF,B5,FE,0E,00,
473889,00000611,false,Rx,0,1,01,00,00,00,00,00,00,00,
473901,00000418,false,Rx,0,8,86,02,1F,FF,94,FE,12,00,
473901,00000418,false,Rx,0,8,86,02,23,FF,94,FE,10,00,
473902,00000418,false,Rx,0,8,85,02,1D,FF,91,FE,0F,00,
473934,00000418,false,Rx,0,8,86,02,1E,FF,95,FE,11,00,
473934,00000418,false,Rx,0,8,87,02,26,FF,96,FE,11,00,
473935,00000418,false,Rx,0,8,8E,02,1D,FF,A4,FE,0D,00,
473935,00000418,false,Rx,0,8,8A,02,1F,FF,A4,FE,06,00,
473948,00000418,false,Rx,0,8,86,02,22,FF,93,FE,07,00,
473948,00000418,false,Rx,0,8,88,02,1F,FF,8C,FE,11,00,
473948,00000418,false,Rx,0,8,86,02,20,FF,9D,FE,1A,00,
473962,00000418,false,Rx,0,8,87,02,1E,FF,94,FE,17,00,
473730,00000418,false,Rx,0,8,8B,02,1F,FF,98,FE,0B,00,
473730,00000418,false,Rx,0,8,87,02,1F,FF,94,FE,03,00,
473730,00000418,false,Rx,0,8,86,02,20,FF,9B,FE,03,00,
473730,00000418,false,Rx,0,8,87,02,1D,FF,95,FE,07,00,
473753,00000418,false,Rx,0,8,87,02,1F,FF,95,FE,07,00,
473753,00000418,false,Rx,0,8,87,02,22,FF,96,FE,02,00,
473769,00000418,false,Rx,0,8,85,02,1E,FF,96,FE,01,00,
473769,00000418,false,Rx,0,8,8D,02,1E,FF,AC,FE,04,00,
473769,00000418,false,Rx,0,8,86,02,1E,FF,96,FE,06,00,
473770,00000418,false,Rx,0,8,87,02,22,FF,99,FE,04,00,
473795,00000418,false,Rx,0,8,86,02,28,FF,97,FE,02,00,
473795,00000418,false,Rx,0,8,87,02,23,FF,9B,FE,04,00,
473795,00000418,false,Rx,0,8,85,02,20,FF,92,FE,0C,00,
473808,00000418,false,Rx,0,8,87,02,1E,FF,94,FE,11,00,
473808,00000418,false,Rx,0,8,87,02,1F,FF,94,FE,0E,00,
473814,00000418,false,Rx,0,8,86,02,1D,FF,94,FE,07,00,
473814,00000418,false,Rx,0,8,87,02,25,FF,91,FE,03,00,
473841,00000418,false,Rx,0,8,87,02,22,FF,93,FE,05,00,
473853,00000418,false,Rx,0,8,87,02,1D,FF,90,FE,0A,00,
473853,00000418,false,Rx,0,8,86,02,20,FF,94,FE,0C,00,
473854,00000418,false,Rx,0,8,87,02,1E,FF,95,FE,0C,00,
473854,00000418,false,Rx,0,8,8A,02,1F,FF,88,FE,0A,00,
474114,00000418,false,Rx,0,8,86,02,22,FF,96,FE,08,00,
474137,00000418,false,Rx,0,8,88,02,1E,FF,8A,FE,06,00,
474151,00000418,false,Rx,0,8,87,02,1C,FF,9A,FE,04,00,
474152,00000418,false,Rx,0,8,89,02,21,FF,9B,FE,04,00,
474152,00000418,false,Rx,0,8,86,02,20,FF,94,FE,04,00,
474152,00000418,false,Rx,0,8,87,02,22,FF,94,FE,04,00,
474166,00000418,false,Rx,0,8,86,02,1E,FF,93,FE,03,00,
474166,00000418,false,Rx,0,8,8A,02,1E,FF,8E,FE,02,00,
474191,00000418,false,Rx,0,8,8B,02,20,FF,9A,FE,04,00,
474191,00000610,false,Rx,0,2,02,0F,00,00,00,00,00,00,
474203,00000418,false,Rx,0,8,87,02,23,FF,9A,FE,08,00,
474203,00000418,false,Rx,0,8,89,02,20,FF,96,FE,0B,00,
474203,00000418,false,Rx,0,8,8A,02,20,FF,A2,FE,09,00,
474203,00000418,false,Rx,0,8,89,02,1F,FF,95,FE,06,00,
474219,00000418,false,Rx,0,8,86,02,1C,FF,94,FE,04,00,
474219,00000418,false,Rx,0,8,88,02,20,FF,98,FE,05,00,
473987,00000418,false,Rx,0,8,8A,02,1C,FF,95,FE,06,00,
473987,00000418,false,Rx,0,8,8D,02,1F,FF,A2,FE,05,00,
474001,00000418,false,Rx,0,8,86,02,24,FF,97,FE,05,00,
474001,00000418,false,Rx,0,8,86,02,26,FF,92,FE,05,00,
474002,00000418,false,Rx,0,8,88,02,1D,FF,9A,FE,07,00,
474011,00000418,false,Rx,0,8,87,02,1E,FF,94,FE,07,00,
474012,00000418,false,Rx,0,8,86,02,20,FF,8F,FE,06,00,
474012,00000418,false,Rx,0,8,8C,02,1F,FF,A1,FE,04,00,
474033,00000418,false,Rx,0,8,8B,02,23,FF,A0,FE,05,00,
474059,00000418,false,Rx,0,8,88,02,1E,FF,8C,FE,08,00,
474059,00000418,false,Rx,0,8,85,02,2B,FF,9F,FE,0A,00,
474060,00000418,false,Rx,0,8,86,02,22,FF,93,FE,0A,00,
474060,00000418,false,Rx,0,8,89,02,1E,FF,9B,FE,06,00,
474060,00000418,false,Rx,0,8,86,02,23,FF,9B,FE,03,00,
474089,00000418,false,Rx,0,8,8C,02,1F,FF,A5,FE,03,00,
474090,00000418,false,Rx,0,8,93,02,1F,FF,AC,FE,05,00,
474090,00000418,false,Rx,0,8,88,02,1F,FF,97,FE,07,00,
474090,00000418,false,Rx,0,8,8A,02,25,FF,9D,FE,06,00,
474107,00000418,false,Rx,0,8,86,02,1F,FF,93,FE,05,00,
474107,00000418,false,Rx,0,8,88,02,1E,FF,86,FE,04,00,
474108,00000418,false,Rx,0,8,87,02,1F,FF,94,FE,05,00,
474377,00000418,false,Rx,0,8,85,02,2A,FF,96,FE,06,00,
474377,00000418,false,Rx,0,8,86,02,22,FF,96,FE,05,00,
474400,00000611,false,Rx,0,1,01,00,00,00,00,00,00,00,
474400,00000418,false,Rx,0,8,87,02,24,FF,99,FE,03,00,
474400,00000418,false,Rx,0,8,8C,02,1E,FF,A9,FE,03,00,
474412,00000418,false,Rx,0,8,86,02,26,FF,93,FE,06,00,
474412,00000418,false,Rx,0,8,8E,02,21,FF,9D,FE,08,00,
474412,00000418,false,Rx,0,8,85,02,20,FF,91,FE,08,00,
474423,00000418,false,Rx,0,8,86,02,20,FF,9B,FE,07,00,
474424,00000418,false,Rx,0,8,88,02,20,FF,94,FE,05,00,
474434,00000418,false,Rx,0,8,87,02,22,FF,9A,FE,05,00,
474434,00000418,false,Rx,0,8,8A,02,20,FF,8E,FE,06,00,
474457,00000418,false,Rx,0,8,88,02,27,FF,9F,FE,09,00,
474479,00000418,false,Rx,0,8,8D,02,22,FF,A1,FE,0C,00,
474479,00000418,false,Rx,0,8,88,02,26,FF,9D,FE,0D,00,
474480,00000418,false,Rx,0,8,86,02,1D,FF,96,FE,0A,00,
474247,00000418,false,Rx,0,8,86,02,23,FF,9B,FE,05,00,
474247,00000418,false,Rx,0,8,87,02,27,FF,98,FE,05,00,
474247,00000418,false,Rx,0,8,86,02,1E,FF,A0,FE,09,00,
474263,00000418,false,Rx,0,8,86,02,1F,FF,93,FE,0F,00,
474263,00000418,false,Rx,0,8,86,02,1F,FF,93,FE,0E,00,
474263,00000418,false,Rx,0,8,87,02,20,FF,96,FE,0A,00,
474263,00000418,false,Rx,0,8,85,02,1F,FF,94,FE,06,00,
474269,00000418,false,Rx,0,8,87,02,20,FF,96,FE,08,00,
474269,00000418,false,Rx,0,8,89,02,1E,FF,8B,FE,0B,00,
474276,00000418,false,Rx,0,8,87,02,21,FF,94,FE,0A,00,
474294,00000418,false,Rx,0,8,87,02,1F,FF,8D,FE,07,00,
474313,00000418,false,Rx,0,8,89,02,23,FF,A0,FE,05,00,
474313,00000418,false,Rx,0,8,88,02,28,FF,94,FE,07,00,
474329,00000418,false,Rx,0,8,87,02,1F,FF,90,FE,0B,00,
474329,00000418,false,Rx,0,8,8B,02,20,FF,A6,FE,0C,00,
474329,00000418,false,Rx,0,8,85,02,21,FF,92,FE,09,00,
474329,00000418,false,Rx,0,8,85,02,1F,FF,97,FE,05,00,
474348,00000418,false,Rx,0,8,85,02,2D,FF,92,FE,03,00,
474359,00000418,false,Rx,0,8,86,02,22,FF,95,FE,04,00,
474359,00000418,false,Rx,0,8,85,02,1F,FF,92,FE,06,00,
474359,00000418,false,Rx,0,8,87,02,20,FF,97,FE,08,00,
474631,00000418,false,Rx,0,8,8A,02,20,FF,9A,FE,0A,00,
474632,00000418,false,Rx,0,8,87,02,23,FF,95,FE,0A,00,
474642,00000418,false,Rx,0,8,85,02,20,FF,95,FE,08,00,
474643,00000418,false,Rx,0,8,88,02,24,FF,93,FE,05,00,
474658,00000418,false,Rx,0,8,87,02,20,FF,94,FE,04,00,
474658,00000418,false,Rx,0,8,88,02,26,FF,95,FE,06,00,
474671,00000418,false,Rx,0,8,86,02,20,FF,93,FE,08,00,
474672,00000418,false,Rx,0,8,85,02,1F,FF,94,FE,07,00,
474684,00000418,false,Rx,0,8,88,02,20,FF,94,FE,05,00,
474685,00000610,false,Rx,0,2,02,0F,00,00,00,00,00,00,
474685,00000418,false,Rx,0,8,8F,02,22,FF,93,FE,03,00,
474706,00000418,false,Rx,0,8,85,02,1F,FF,96,FE,04,00,
474706,00000418,false,Rx,0,8,8A,02,22,FF,94,FE,06,00,
474717,00000418,false,Rx,0,8,89,02,21,FF,94,FE,08,00,
474717,00000418,false,Rx,0,8,85,02,22,FF,93,FE,08,00,
474717,00000418,false,Rx,0,8,87,02,1F,FF,94,FE,08,00,
474734,00000418,false,Rx,0,8,86,02,21,FF,94,FE,08,00,
474751,00000418,false,Rx,0,8,8A,02,1C,FF,A0,FE,09,00,
474496,00000418,false,Rx,0,8,87,02,1E,FF,96,FE,0A,00,
474496,00000418,false,Rx,0,8,86,02,20,FF,95,FE,09,00,
474523,00000418,false,Rx,0,8,88,02,33,FF,8A,FE,08,00,
474523,00000418,false,Rx,0,8,87,02,28,FF,93,FE,08,00,
474546,00000418,false,Rx,0,8,85,02,1E,FF,96,FE,07,00,
474546,00000418,false,Rx,0,8,86,02,22,FF,93,FE,06,00,
474546,00000418,false,Rx,0,8,86,02,1F,FF,93,FE,05,00,
474546,00000418,false,Rx,0,8,85,02,1E,FF,96,FE,03,00,
474567,00000418,false,Rx,0,8,86,02,1F,FF,93,FE,02,00,
474567,00000418,false,Rx,0,8,87,02,24,FF,9B,FE,03,00,
474567,00000418,false,Rx,0,8,87,02,1C,FF,98,FE,04,00,
474567,00000418,false,Rx,0,8,87,02,1F,FF,9C,FE,05,00,
474576,00000418,false,Rx,0,8,86,02,1D,FF,96,FE,05,00,
474576,00000418,false,Rx,0,8,89,02,1E,FF,97,FE,04,00,
474583,00000418,false,Rx,0,8,85,02,1D,FF,93,FE,04,00,
474584,00000418,false,Rx,0,8,87,02,1E,FF,8E,FE,04,00,
474603,00000418,false,Rx,0,8,86,02,22,FF,95,FE,05,00,
474609,00000418,false,Rx,0,8,89,02,1E,FF,9E,FE,06,00,
474609,00000418,false,Rx,0,8,8B,02,1E,FF,A0,FE,05,00,
474609,00000418,false,Rx,0,8,87,02,1E,FF,97,FE,04,00,
474885,00000418,false,Rx,0,8,8C,02,1F,FF,A3,FE,03,00,
474904,00000611,false,Rx,0,1,01,00,00,00,00,00,00,00,
474904,00000418,false,Rx,0,8,89,02,1D,FF,89,FE,04,00,
474904,00000418,false,Rx,0,8,88,02,1F,FF,98,FE,05,00,
474916,00000418,false,Rx,0,8,85,02,20,FF,8D,FE,05,00,
474916,00000418,false,Rx,0,8,87,02,1E,FF,94,FE,05,00,
474916,00000418,false,Rx,0,8,86,02,1E,FF,97,FE,06,00,
474930,00000418,false,Rx,0,8,8D,02,1D,FF,9E,FE,0A,00,
474930,00000418,false,Rx,0,8,89,02,1E,FF,85,FE,0C,00,
474938,00000418,false,Rx,0,8,86,02,29,FF,93,FE,0B,00,
474938,00000418,false,Rx,0,8,87,02,27,FF,97,FE,07,00,
474958,00000418,false,Rx,0,8,8B,02,1D,FF,A5,FE,03,00,
474972,00000418,false,Rx,0,8,8B,02,1C,FF,A3,FE,03,00,
474972,00000418,false,Rx,0,8,8A,02,23,FF,92,FE,04,00,
474972,00000418,false,Rx,0,8,84,02,1F,FF,95,FE,05,00,
474991,00000418,false,Rx,0,8,85,02,1E,FF,94,FE,05,00,
474991,00000418,false,Rx,0,8,8D,02,23,FF,95,FE,05,00,
474991,00000418,false,Rx,0,8,86,02,20,FF,95,FE,04,00,
474753,00000418,false,Rx,0,8,8C,02,1D,FF,A1,FE,05,00,
474763,00000418,false,Rx,0,8,85,02,1D,FF,8F,FE,05,00,
474763,00000418,false,Rx,0,8,95,02,1D,FF,BB,FE,05,00,
474763,00000418,false,Rx,0,8,88,02,19,FF,94,FE,06,00,
474782,00000418,false,Rx,0,8,84,02,1D,FF,90,FE,07,00,
474782,00000418,false,Rx,0,8,86,02,28,FF,95,FE,07,00,
474791,00000418,false,Rx,0,8,86,02,21,FF,97,FE,07,00,
474791,00000418,false,Rx,0,8,8A,02,1F,FF,93,FE,09,00,
474814,00000418,false,Rx,0,8,85,02,1C,FF,98,FE,0B,00,
474814,00000418,false,Rx,0,8,8A,02,26,FF,9D,FE,0B,00,
474814,00000418,false,Rx,0,8,85,02,1C,FF,96,FE,08,00,
474832,00000418,false,Rx,0,8,85,02,1C,FF,93,FE,05,00,
474832,00000418,false,Rx,0,8,88,02,24,FF,87,FE,04,00,
474860,00000418,false,Rx,0,8,88,02,20,FF,8E,FE,06,00,
474861,00000418,false,Rx,0,8,89,02,1C,FF,9B,FE,0A,00,
474861,00000418,false,Rx,0,8,89,02,1B,FF,9B,FE,0C,00,
474878,00000418,false,Rx,0,8,87,02,27,FF,95,FE,0D,00,
474878,00000418,false,Rx,0,8,85,02,25,FF,93,FE,0C,00,
474878,00000418,false,Rx,0,8,87,02,1D,FF,91,FE,0B,00,
474879,00000418,false,Rx,0,8,85,02,1D,FF,92,FE,0A,00,
475160,00000418,false,Rx,0,8,8E,02,1E,FF,AD,FE,09,00,
475161,00000418,false,Rx,0,8,86,02,1D,FF,94,FE,07,00,
475169,00000418,false,Rx,0,8,85,02,21,FF,96,FE,04,00,
475169,00000418,false,Rx,0,8,8F,02,29,FF,AE,FE,02,00,
475169,00000418,false,Rx,0,8,87,02,1D,FF,94,FE,04,00,
475189,00000418,false,Rx,0,8,86,02,21,FF,97,FE,0B,00,
475189,00000418,false,Rx,0,8,86,02,1D,FF,94,FE,13,00,
475189,00000610,false,Rx,0,2,02,0F,00,00,00,00,00,00,
475190,00000418,false,Rx,0,8,88,02,1F,FF,99,FE,16,00,
475214,00000418,false,Rx,0,8,8A,02,20,FF,9C,FE,12,00,
475214,00000418,false,Rx,0,8,88,02,1E,FF,93,FE,0A,00,
475232,00000418,false,Rx,0,8,87,02,1C,FF,96,FE,04,00,
475232,00000418,false,Rx,0,8,8C,02,24,FF,A5,FE,03,00,
475232,00000418,false,Rx,0,8,85,02,1D,FF,8E,FE,05,00,
475233,00000418,false,Rx,0,8,85,02,1D,FF,97,FE,06,00,
475233,00000418,false,Rx,0,8,85,02,1E,FF,98,FE,06,00,
475243,00000418,false,Rx,0,8,87,02,1D,FF,8C,FE,07,00,
475248,00000418,false,Rx,0,8,86,02,20,FF,91,FE,09,00,
475016,00000418,false,Rx,0,8,86,02,25,FF,90,FE,0C,00,
475035,00000418,false,Rx,0,8,8B,02,22,FF,8E,FE,0B,00,
475036,00000418,false,Rx,0,8,86,02,1D,FF,95,FE,08,00,
475036,00000418,false,Rx,0,8,89,02,1D,FF,99,FE,05,00,
475036,00000418,false,Rx,0,8,86,02,1D,FF,92,FE,05,00,
475057,00000418,false,Rx,0,8,8C,02,1E,FF,A9,FE,07,00,
475057,00000418,false,Rx,0,8,8C,02,20,FF,A1,FE,09,00,
475058,00000418,false,Rx,0,8,88,02,1C,FF,98,FE,0A,00,
475077,00000418,false,Rx,0,8,85,02,1D,FF,98,FE,0B,00,
475077,00000418,false,Rx,0,8,86,02,1D,FF,96,FE,0C,00,
475077,00000418,false,Rx,0,8,87,02,1D,FF,95,FE,0D,00,
475093,00000418,false,Rx,0,8,86,02,1E,FF,91,FE,0C,00,
475093,00000418,false,Rx,0,8,88,02,1D,FF,92,FE,09,00,
475093,00000418,false,Rx,0,8,85,02,1E,FF,91,FE,05,00,
475117,00000418,false,Rx,0,8,89,02,22,FF,93,FE,03,00,
475117,00000418,false,Rx,0,8,86,02,22,FF,93,FE,02,00,
475130,00000418,false,Rx,0,8,87,02,1D,FF,95,FE,03,00,
475130,00000418,false,Rx,0,8,8B,02,1F,FF,A2,FE,05,00,
475130,00000611,false,Rx,0,1,01,00,00,00,00,00,00,00,
475130,00000418,false,Rx,0,8,87,02,1C,FF,96,FE,08,00,
475131,00000418,false,Rx,0,8,88,02,1B,FF,9C,FE,0A,00,
475419,00000418,false,Rx,0,8,85,02,1D,FF,8F,FE,0A,00,
475420,00000418,false,Rx,0,8,86,02,1E,FF,92,FE,07,00,
475437,00000418,false,Rx,0,8,89,02,27,FF,9A,FE,05,00,
475438,00000418,false,Rx,0,8,86,02,26,FF,8D,FE,06,00,
475438,00000418,false,Rx,0,8,87,02,20,FF,97,FE,09,00,
475438,00000418,false,Rx,0,8,85,02,1C,FF,90,FE,0A,00,
475444,00000418,false,Rx,0,8,88,02,1C,FF,92,FE,07,00,
475444,00000418,false,Rx,0,8,86,02,27,FF,95,FE,04,00,
475468,00000418,false,Rx,0,8,87,02,20,FF,8C,FE,05,00,
475479,00000418,false,Rx,0,8,87,02,27,FF,97,FE,09,00,
475479,00000418,false,Rx,0,8,86,02,20,FF,97,FE,0D,00,
475480,00000418,false,Rx,0,8,85,02,1D,FF,9A,FE,0C,00,
475480,00000418,false,Rx,0,8,89,02,1C,FF,9E,FE,07,00,
475491,00000418,false,Rx,0,8,87,02,1D,FF,99,FE,03,00,
475507,00000418,false,Rx,0,8,89,02,1E,FF,95,FE,02,00,
475507,00000418,false,Rx,0,8,87,02,20,FF,9B,FE,04,00,
475508,00000418,false,Rx,0,8,8A,02,1D,FF,A4,FE,07,00,
475273,00000418,false,Rx,0,8,87,02,1D,FF,90,FE,07,00,
475273,00000418,false,Rx,0,8,89,02,1D,FF,99,FE,05,00,
475273,00000418,false,Rx,0,8,8A,02,2C,FF,9B,FE,04,00,
475288,00000418,false,Rx,0,8,85,02,1D,FF,91,FE,05,00,
475289,00000418,false,Rx,0,8,89,02,1C,FF,89,FE,06,00,
475295,00000418,false,Rx,0,8,85,02,1D,FF,97,FE,07,00,
475323,00000418,false,Rx,0,8,88,02,1F,FF,84,FE,07,00,
475324,00000418,false,Rx,0,8,85,02,1E,FF,93,FE,07,00,
475344,00000418,false,Rx,0,8,87,02,1E,FF,99,FE,07,00,
475344,00000418,false,Rx,0,8,88,02,1F,FF,8D,FE,08,00,
475344,00000418,false,Rx,0,8,87,02,1D,FF,95,FE,09,00,
475366,00000418,false,Rx,0,8,86,02,1F,FF,92,FE,07,00,
475366,00000418,false,Rx,0,8,86,02,21,FF,97,FE,05,00,
475366,00000418,false,Rx,0,8,8D,02,1E,FF,A6,FE,05,00,
475367,00000418,false,Rx,0,8,85,02,23,FF,9A,FE,07,00,
475648,00000418,false,Rx,0,8,87,02,26,FF,9A,FE,09,00,
475648,00000418,false,Rx,0,8,8F,02,28,FF,A0,FE,08,00,
475649,00000418,false,Rx,0,8,87,02,21,FF,95,FE,06,00,
475653,00000418,false,Rx,0,8,86,02,22,FF,92,FE,05,00,
475653,00000418,false,Rx,0,8,87,02,25,FF,90,FE,05,00,
475653,00000418,false,Rx,0,8,86,02,33,FF,90,FE,06,00,
475672,00000418,false,Rx,0,8,88,02,2B,FF,90,FE,05,00,
475672,00000418,false,Rx,0,8,87,02,20,FF,96,FE,05,00,
475673,00000418,false,Rx,0,8,86,02,22,FF,9A,FE,06,00,
475687,00000418,false,Rx,0,8,88,02,21,FF,98,FE,08,00,
475688,00000610,false,Rx,0,2,02,0F,00,00,00,00,00,00,
475688,00000418,false,Rx,0,8,8D,02,22,FF,A6,FE,09,00,
475711,00000418,false,Rx,0,8,87,02,26,FF,98,FE,09,00,
475737,00000418,false,Rx,0,8,88,02,25,FF,98,FE,08,00,
475737,00000418,false,Rx,0,8,86,02,24,FF,8B,FE,09,00,
475738,00000418,false,Rx,0,8,85,02,26,FF,97,FE,0B,00,
475738,00000418,false,Rx,0,8,86,02,23,FF,98,FE,0C,00,
475738,00000418,false,Rx,0,8,84,02,24,FF,91,FE,0B,00,
475750,00000418,false,Rx,0,8,85,02,23,FF,96,FE,08,00,
475750,00000418,false,Rx,0,8,8B,02,2F,FF,81,FE,06,00,
475762,00000418,false,Rx,0,8,86,02,25,FF,98,FE,05,00,
475762,00000418,false,Rx,0,8,8A,02,24,FF,8A,FE,05,00,
475527,00000418,false,Rx,0,8,86,02,29,FF,92,FE,04,00,
475527,00000418,false,Rx,0,8,87,02,2D,FF,8A,FE,06,00,
475548,00000418,false,Rx,0,8,86,02,22,FF,99,FE,09,00,
475549,00000418,false,Rx,0,8,8D,02,25,FF,94,FE,0C,00,
475549,00000418,false,Rx,0,8,85,02,21,FF,9D,FE,0B,00,
475574,00000418,false,Rx,0,8,87,02,25,FF,91,FE,07,00,
475575,00000418,false,Rx,0,8,85,02,23,FF,9A,FE,05,00,
475575,00000418,false,Rx,0,8,85,02,22,FF,9A,FE,07,00,
475590,00000418,false,Rx,0,8,86,02,25,FF,9A,FE,0C,00,
475590,00000418,false,Rx,0,8,86,02,22,FF,87,FE,0E,00,
475590,00000418,false,Rx,0,8,85,02,21,FF,9C,FE,0B,00,
475590,00000418,false,Rx,0,8,86,02,1E,FF,95,FE,06,00,
475605,00000418,false,Rx,0,8,87,02,24,FF,9F,FE,03,00,
475605,00000418,false,Rx,0,8,88,02,1E,FF,8C,FE,05,00,
475626,00000418,false,Rx,0,8,86,02,21,FF,96,FE,09,00,
475626,00000418,false,Rx,0,8,88,02,20,FF,94,FE,0B,00,
475640,00000418,false,Rx,0,8,87,02,1E,FF,9C,FE,0A,00,
475640,00000611,false,Rx,0,1,01,00,00,00,00,00,00,00,
475641,00000418,false,Rx,0,8,89,02,2B,FF,97,FE,07,00,
475641,00000418,false,Rx,0,8,84,02,1D,FF,98,FE,06,00,
475927,00000418,false,Rx,0,8,85,02,1C,FF,97,FE,05,00,
475928,00000418,false,Rx,0,8,85,02,1C,FF,99,FE,06,00,
475935,00000418,false,Rx,0,8,86,02,1C,FF,96,FE,09,00,
475935,00000418,false,Rx,0,8,8B,02,1E,FF,8B,FE,0C,00,
475935,00000418,false,Rx,0,8,83,02,19,FF,9C,FE,0D,00,
475935,00000418,false,Rx,0,8,83,02,1F,FF,92,FE,0C,00,
475948,00000418,false,Rx,0,8,86,02,18,FF,99,FE,0B,00,
475954,00000418,false,Rx,0,8,85,02,1C,FF,93,FE,09,00,
475954,00000418,false,Rx,0,8,85,02,1B,FF,95,FE,09,00,
475971,00000418,false,Rx,0,8,83,02,13,FF,95,FE,08,00,
475981,00000418,false,Rx,0,8,83,02,15,FF,9B,FE,06,00,
475981,00000418,false,Rx,0,8,89,02,1B,FF,93,FE,05,00,
475996,00000418,false,Rx,0,8,89,02,11,FF,AC,FE,05,00,
475996,00000418,false,Rx,0,8,83,02,11,FF,92,FE,07,00,
476008,00000418,false,Rx,0,8,83,02,0F,FF,92,FE,08,00,
476008,00000418,false,Rx,0,8,85,02,16,FF,91,FE,08,00,
475780,00000418,false,Rx,0,8,82,02,0E,FF,92,FE,08,00,
475781,00000418,false,Rx,0,8,82,02,0E,FF,92,FE,09,00,
475794,00000418,false,Rx,0,8,83,02,08,FF,8F,FE,08,00,
475795,00000418,false,Rx,0,8,83,02,09,FF,93,FE,06,00,
475795,00000418,false,Rx,0,8,83,02,09,FF,8E,FE,04,00,
475795,00000418,false,Rx,0,8,82,02,03,FF,8C,FE,04,00,
475809,00000418,false,Rx,0,8,82,02,06,FF,8E,FE,06,00,
475809,00000418,false,Rx,0,8,8B,02,04,FF,A3,FE,09,00,
475827,00000418,false,Rx,0,8,82,02,01,FF,84,FE,08,00,
475827,00000418,false,Rx,0,8,89,02,02,FF,95,FE,06,00,
475841,00000418,false,Rx,0,8,82,02,FE,FE,8B,FE,06,00,
475841,00000418,false,Rx,0,8,81,02,FD,FE,8C,FE,08,00,
475841,00000418,false,Rx,0,8,81,02,FC,FE,8C,FE,0B,00,
475857,00000418,false,Rx,0,8,81,02,FA,FE,8B,FE,0B,00,
475857,00000418,false,Rx,0,8,81,02,F7,FE,81,FE,09,00,
475858,00000418,false,Rx,0,8,7E,02,F8,FE,8D,FE,07,00,
475867,00000418,false,Rx,0,8,7F,02,F5,FE,88,FE,08,00,
475886,00000418,false,Rx,0,8,7C,02,F3,FE,8C,FE,0A,00,
475886,00000418,false,Rx,0,8,83,02,F3,FE,9E,FE,0B,00,
475886,00000418,false,Rx,0,8,7B,02,F2,FE,8A,FE,0D,00,
475897,00000418,false,Rx,0,8,77,02,EA,FE,86,FE,10,00,
476166,00000418,false,Rx,0,8,7A,02,E8,FE,90,FE,13,00,
476166,00000418,false,Rx,0,8,7C,02,E6,FE,9B,FE,14,00,
476176,00000418,false,Rx,0,8,78,02,E6,FE,8F,FE,12,00,
476189,00000418,false,Rx,0,8,76,02,E5,FE,8E,FE,10,00,
476190,00000418,false,Rx,0,8,75,02,DF,FE,90,FE,11,00,
476190,00000610,false,Rx,0,2,02,0F,00,00,00,00,00,00,
476190,00000418,false,Rx,0,8,74,02,E0,FE,8D,FE,15,00,
476198,00000418,false,Rx,0,8,77,02,DB,FE,96,FE,19,00,
476202,00000418,false,Rx,0,8,73,02,D9,FE,8E,FE,1A,00,
476221,00000418,false,Rx,0,8,72,02,D8,FE,8E,FE,1A,00,
476242,00000418,false,Rx,0,8,73,02,D6,FE,9A,FE,1C,00,
476242,00000418,false,Rx,0,8,6D,02,D7,FE,8E,FE,1F,00,
476242,00000418,false,Rx,0,8,6D,02,D9,FE,93,FE,21,00,
476242,00000418,false,Rx,0,8,6B,02,D1,FE,8B,FE,21,00,
476248,00000418,false,Rx,0,8,68,02,C8,FE,92,FE,22,00,
476255,00000418,false,Rx,0,8,66,02,C5,FE,92,FE,22,00,
476262,00000418,false,Rx,0,8,65,02,C5,FE,91,FE,24,00,
476269,00000418,false,Rx,0,8,66,02,C5,FE,97,FE,27,00,
476278,00000418,false,Rx,0,8,63,02,C0,FE,95,FE,29,00,
476037,00000418,false,Rx,0,8,62,02,B8,FE,98,FE,2B,00,
476037,00000418,false,Rx,0,8,62,02,B4,FE,99,FE,2C,00,
476042,00000418,false,Rx,0,8,69,02,AD,FE,A1,FE,2C,00,
476051,00000418,false,Rx,0,8,69,02,A8,FE,A2,FE,2C,00,
476058,00000418,false,Rx,0,8,69,02,A5,FE,A5,FE,2E,00,
476058,00000418,false,Rx,0,8,6A,02,A1,FE,A8,FE,32,00,
476072,00000418,false,Rx,0,8,68,02,9F,FE,A5,FE,36,00,
476085,00000418,false,Rx,0,8,66,02,9D,FE,A3,FE,38,00,
476086,00000418,false,Rx,0,8,68,02,9D,FE,A8,FE,39,00,
476102,00000418,false,Rx,0,8,63,02,95,FE,A4,FE,3A,00,
476102,00000418,false,Rx,0,8,63,02,92,FE,A9,FE,3D,00,
476102,00000418,false,Rx,0,8,64,02,93,FE,AC,FE,3F,00,
476124,00000418,false,Rx,0,8,63,02,9A,FE,AB,FE,41,00,
476124,00000418,false,Rx,0,8,5F,02,8E,FE,A8,FE,43,00,
476124,00000611,false,Rx,0,1,01,00,00,00,00,00,00,00,
476159,00000418,false,Rx,0,8,5F,02,89,FE,AE,FE,46,00,
476159,00000418,false,Rx,0,8,5E,02,86,FE,A1,FE,48,00,
476159,00000418,false,Rx,0,8,5B,02,86,FE,B0,FE,47,00,
