Time Stamp,ID,Extended,Dir,Bus,LEN,D1,D2,D3,D4,D5,D6,D7,D8
27759,00000611,false,Rx,0,1,00,00,00,00,00,00,00,00,
27933,00000610,false,Rx,0,2,02,0F,00,00,00,00,00,00,
28265,00000611,false,Rx,0,1,00,00,00,00,00,00,00,00,
28443,00000610,false,Rx,0,2,02,0F,00,00,00,00,00,00,
28760,00000611,false,Rx,0,1,00,00,00,00,00,00,00,00,
28939,00000610,false,Rx,0,2,02,0F,00,00,00,00,00,00,
29264,00000611,false,Rx,0,1,00,00,00,00,00,00,00,00,
29444,00000610,false,Rx,0,2,02,0F,00,00,00,00,00,00,
29759,00000611,false,Rx,0,1,00,00,00,00,00,00,00,00,
29954,00000610,false,Rx,0,2,02,0F,00,00,00,00,00,00,
30262,00000611,false,Rx,0,1,00,00,00,00,00,00,00,00,
30193,00000610,false,Rx,0,2,02,0F,00,00,00,00,00,00,
30759,00000611,false,Rx,0,1,00,00,00,00,00,00,00,00,
30703,00000610,false,Rx,0,2,02,0F,00,00,00,00,00,00,
31263,00000611,false,Rx,0,1,00,00,00,00,00,00,00,00,
31203,00000610,false,Rx,0,2,02,0F,00,00,00,00,00,00,
31761,00000611,false,Rx,0,1,01,00,00,00,00,00,00,00,
31774,00000418,false,Rx,0,8,F4,02,4D,FE,8D,FF,0A,00,
31779,00000418,false,Rx,0,8,F9,02,53,FE,92,FF,0A,00,
31788,00000418,false,Rx,0,8,F9,02,5C,FE,91,FF,0C,00,
31796,00000418,false,Rx,0,8,F9,02,51,FE,92,FF,0D,00,
31801,00000418,false,Rx,0,8,F9,02,53,FE,92,FF,0B,00,
31806,00000418,false,Rx,0,8,FA,02,5C,FE,93,FF,09,00,
31819,00000418,false,Rx,0,8,00,03,53,FE,A5,FF,06,00,
31825,00000418,false,Rx,0,8,FA,02,57,FE,95,FF,06,00,
31829,00000418,false,Rx,0,8,FA,02,5B,FE,8E,FF,07,00,
31835,00000418,false,Rx,0,8,F8,02,52,FE,8D,FF,07,00,
31839,00000418,false,Rx,0,8,FA,02,54,FE,95,FF,07,00,
31849,00000418,false,Rx,0,8,FB,02,5C,FE,90,FF,06,00,
31854,00000418,false,Rx,0,8,F9,02,52,FE,94,FF,06,00,
31862,00000418,false,Rx,0,8,F9,02,53,FE,92,FF,06,00,
31867,00000418,false,Rx,0,8,FB,02,5B,FE,92,FF,05,00,
31621,00000418,false,Rx,0,8,FA,02,52,FE,93,FF,05,00,
31625,00000418,false,Rx,0,8,FA,02,58,FE,92,FF,06,00,
31635,00000418,false,Rx,0,8,F9,02,59,FE,94,FF,06,00,
31642,00000418,false,Rx,0,8,F9,02,55,FE,93,FF,06,00,
31651,00000418,false,Rx,0,8,FC,02,55,FE,89,FF,05,00,
31658,00000418,false,Rx,0,8,FA,02,59,FE,8F,FF,05,00,
31665,00000418,false,Rx,0,8,F8,02,52,FE,92,FF,05,00,
31672,00000418,false,Rx,0,8,FA,02,55,FE,94,FF,06,00,
31687,00000418,false,Rx,0,8,FA,02,5A,FE,91,FF,07,00,
31692,00000418,false,Rx,0,8,F9,02,54,FE,91,FF,07,00,
31692,00000418,false,Rx,0,8,FB,02,55,FE,95,FF,08,00,
31704,00000418,false,Rx,0,8,FA,02,55,FE,90,FF,07,00,
31709,00000418,false,Rx,0,8,F9,02,53,FE,8D,FF,05,00,
31710,00000610,false,Rx,0,2,02,0F,00,00,00,00,00,00,
31712,00000418,false,Rx,0,8,F9,02,57,FE,8F,FF,04,00,
31717,00000418,false,Rx,0,8,FA,02,57,FE,95,FF,07,00,
31723,00000418,false,Rx,0,8,F8,02,58,FE,8F,FF,0C,00,
31739,00000418,false,Rx,0,8,F9,02,55,FE,8B,FF,0F,00,
32007,00000418,false,Rx,0,8,FB,02,57,FE,95,FF,0D,00,
32008,00000418,false,Rx,0,8,F9,02,52,FE,98,FF,09,00,
32012,00000418,false,Rx,0,8,FE,02,4B,FE,95,FF,06,00,
32029,00000418,false,Rx,0,8,FB,02,4D,FE,97,FF,06,00,
32032,00000418,false,Rx,0,8,F8,02,4C,FE,9A,FF,07,00,
32033,00000418,false,Rx,0,8,F8,02,4D,FE,9B,FF,07,00,
32039,00000418,false,Rx,0,8,F6,02,4D,FE,A0,FF,06,00,
32048,00000418,false,Rx,0,8,F5,02,4E,FE,9E,FF,06,00,
32052,00000418,false,Rx,0,8,F6,02,4E,FE,A7,FF,06,00,
32060,00000418,false,Rx,0,8,F6,02,50,FE,A4,FF,07,00,
32068,00000418,false,Rx,0,8,F6,02,4F,FE,A5,FF,08,00,
32073,00000418,false,Rx,0,8,F4,02,4C,FE,9F,FF,08,00,
32080,00000418,false,Rx,0,8,F7,02,49,FE,A7,FF,08,00,
32085,00000418,false,Rx,0,8,F7,02,4B,FE,AB,FF,07,00,
32095,00000418,false,Rx,0,8,F6,02,49,FE,AD,FF,06,00,
32103,00000418,false,Rx,0,8,FA,02,47,FE,A7,FF,06,00,
32107,00000418,false,Rx,0,8,F6,02,49,FE,AC,FF,06,00,
32118,00000418,false,Rx,0,8,F9,02,45,FE,B1,FF,07,00,
31879,00000418,false,Rx,0,8,FC,02,4E,FE,A8,FF,07,00,
31884,00000418,false,Rx,0,8,F5,02,50,FE,B7,FF,06,00,
31884,00000418,false,Rx,0,8,F3,02,4B,FE,AC,FF,06,00,
31909,00000418,false,Rx,0,8,F4,02,4C,FE,AC,FF,07,00,
31909,00000418,false,Rx,0,8,F8,02,55,FE,C2,FF,08,00,
31909,00000418,false,Rx,0,8,EA,02,54,FE,BE,FF,08,00,
31914,00000418,false,Rx,0,8,CC,02,6B,FE,A2,FF,08,00,
31921,00000418,false,Rx,0,8,C4,02,70,FE,91,FF,08,00,
31929,00000418,false,Rx,0,8,C0,02,67,FE,96,FF,09,00,
31929,00000418,false,Rx,0,8,C3,02,69,FE,8D,FF,0B,00,
31934,00000418,false,Rx,0,8,DD,02,7E,FE,72,FF,0C,00,
31940,00000418,false,Rx,0,8,DB,02,71,FE,7A,FF,0C,00,
31949,00000418,false,Rx,0,8,E3,02,72,FE,68,FF,0D,00,
31956,00000418,false,Rx,0,8,F1,02,67,FE,6F,FF,0F,00,
31963,00000418,false,Rx,0,8,F1,02,6B,FE,44,FF,13,00,
31978,00000418,false,Rx,0,8,EF,02,71,FE,41,FF,16,00,
31981,00000418,false,Rx,0,8,F6,02,63,FE,5C,FF,15,00,
31986,00000418,false,Rx,0,8,0C,03,56,FE,84,FF,13,00,
31990,00000418,false,Rx,0,8,11,03,4D,FE,A7,FF,14,00,
31997,00000418,false,Rx,0,8,F8,02,46,FE,AB,FF,18,00,
32257,00000611,false,Rx,0,1,01,00,00,00,00,00,00,00,
32262,00000418,false,Rx,0,8,F3,02,4B,FE,AF,FF,1C,00,
32268,00000418,false,Rx,0,8,F5,02,48,FE,C9,FF,1C,00,
32273,00000418,false,Rx,0,8,D4,02,69,FE,A1,FF,1B,00,
32283,00000418,false,Rx,0,8,E1,02,6F,FE,73,FF,1C,00,
32288,00000418,false,Rx,0,8,E5,02,6C,FE,6A,FF,1E,00,
32297,00000418,false,Rx,0,8,E9,02,6D,FE,5A,FF,1F,00,
32308,00000418,false,Rx,0,8,01,03,53,FE,8A,FF,1E,00,
32313,00000418,false,Rx,0,8,F0,02,4B,FE,96,FF,1D,00,
32317,00000418,false,Rx,0,8,F2,02,54,FE,B6,FF,21,00,
32335,00000418,false,Rx,0,8,E2,02,5B,FE,BA,FF,29,00,
32341,00000418,false,Rx,0,8,DE,02,66,FE,7B,FF,31,00,
32342,00000418,false,Rx,0,8,E8,02,6F,FE,72,FF,34,00,
32347,00000418,false,Rx,0,8,ED,02,65,FE,60,FF,37,00,
32352,00000418,false,Rx,0,8,00,03,55,FE,76,FF,3C,00,
32357,00000418,false,Rx,0,8,F6,02,53,FE,97,FF,3F,00,
32366,00000418,false,Rx,0,8,E9,02,52,FE,A1,FF,3B,00,
32371,00000418,false,Rx,0,8,E8,02,54,FE,B3,FF,32,00,
32383,00000418,false,Rx,0,8,D2,02,65,FE,9F,FF,30,00,
32136,00000418,false,Rx,0,8,DB,02,69,FE,80,FF,3D,00,
32139,00000418,false,Rx,0,8,E5,02,64,FE,75,FF,4D,00,
32154,00000418,false,Rx,0,8,F2,02,63,FE,73,FF,4F,00,
32158,00000418,false,Rx,0,8,05,03,55,FE,7A,FF,3E,00,
32162,00000418,false,Rx,0,8,F8,02,50,FE,92,FF,27,00,
32167,00000418,false,Rx,0,8,F0,02,53,FE,9D,FF,1B,00,
32177,00000418,false,Rx,0,8,E8,02,5F,FE,B4,FF,1F,00,
32184,00000418,false,Rx,0,8,D1,02,68,FE,8F,FF,28,00,
32189,00000418,false,Rx,0,8,DC,02,6B,FE,75,FF,2E,00,
32195,00000418,false,Rx,0,8,ED,02,67,FE,68,FF,30,00,
32201,00000418,false,Rx,0,8,FE,02,52,FE,72,FF,34,00,
32207,00000418,false,Rx,0,8,01,03,4A,FE,8B,FF,35,00,
32214,00000610,false,Rx,0,2,02,0F,00,00,00,00,00,00,
32220,00000418,false,Rx,0,8,F3,02,52,FE,9B,FF,2E,00,
32225,00000418,false,Rx,0,8,E7,02,5A,FE,AC,FF,21,00,
32234,00000418,false,Rx,0,8,CD,02,68,FE,8D,FF,16,00,
32240,00000418,false,Rx,0,8,D8,02,68,FE,75,FF,19,00,
32245,00000418,false,Rx,0,8,E4,02,67,FE,69,FF,27,00,
32249,00000418,false,Rx,0,8,02,03,50,FE,75,FF,34,00,
32519,00000418,false,Rx,0,8,FC,02,50,FE,8F,FF,35,00,
32524,00000418,false,Rx,0,8,EF,02,4F,FE,9B,FF,2A,00,
32538,00000418,false,Rx,0,8,D5,02,66,FE,91,FF,1C,00,
32544,00000418,false,Rx,0,8,E0,02,6F,FE,95,FF,15,00,
32544,00000418,false,Rx,0,8,E9,02,65,FE,62,FF,17,00,
32548,00000418,false,Rx,0,8,02,03,4E,FE,78,FF,1F,00,
32554,00000418,false,Rx,0,8,00,03,4B,FE,9D,FF,28,00,
32567,00000418,false,Rx,0,8,EB,02,4F,FE,AB,FF,2B,00,
32574,00000418,false,Rx,0,8,D0,02,6A,FE,8F,FF,28,00,
32578,00000418,false,Rx,0,8,D8,02,6C,FE,77,FF,20,00,
32584,00000418,false,Rx,0,8,E8,02,59,FE,62,FF,17,00,
32590,00000418,false,Rx,0,8,FB,02,4A,FE,8E,FF,11,00,
32596,00000418,false,Rx,0,8,F3,02,56,FE,A4,FF,14,00,
32607,00000418,false,Rx,0,8,D6,02,63,FE,92,FF,1E,00,
32615,00000418,false,Rx,0,8,DB,02,6B,FE,72,FF,2B,00,
32618,00000418,false,Rx,0,8,ED,02,63,FE,69,FF,31,00,
32624,00000418,false,Rx,0,8,FB,02,45,FE,8F,FF,2C,00,
32637,00000418,false,Rx,0,8,F4,02,4E,FE,A4,FF,20,00,
32386,00000418,false,Rx,0,8,D7,02,6F,FE,94,FF,15,00,
32391,00000418,false,Rx,0,8,D5,02,69,FE,70,FF,13,00,
32399,00000418,false,Rx,0,8,E9,02,5C,FE,61,FF,1C,00,
32408,00000418,false,Rx,0,8,F6,02,54,FE,98,FF,29,00,
32412,00000418,false,Rx,0,8,EE,02,52,FE,A1,FF,31,00,
32416,00000418,false,Rx,0,8,D9,02,6A,FE,7C,FF,2D,00,
32426,00000418,false,Rx,0,8,E0,02,6F,FE,64,FF,1E,00,
32430,00000418,false,Rx,0,8,F8,02,55,FE,70,FF,10,00,
32440,00000418,false,Rx,0,8,F8,02,4C,FE,9D,FF,0F,00,
32451,00000418,false,Rx,0,8,E7,02,67,FE,AA,FF,1C,00,
32461,00000418,false,Rx,0,8,D8,02,6A,FE,71,FF,2B,00,
32469,00000418,false,Rx,0,8,E2,02,60,FE,56,FF,2D,00,
32474,00000418,false,Rx,0,8,F4,02,55,FE,95,FF,21,00,
32495,00000418,false,Rx,0,8,EE,02,4F,FE,A3,FF,17,00,
32501,00000418,false,Rx,0,8,D8,02,6D,FE,7A,FF,1C,00,
32501,00000418,false,Rx,0,8,E8,02,6C,FE,75,FF,2B,00,
32501,00000418,false,Rx,0,8,FA,02,49,FE,88,FF,31,00,
32506,00000418,false,Rx,0,8,F2,02,4D,FE,9D,FF,26,00,
32511,00000611,false,Rx,0,1,01,00,00,00,00,00,00,00,
-32765,00000418,false,Rx,0,8,D8,02,6C,FE,88,FF,17,00,
-32761,00000418,false,Rx,0,8,D9,02,68,FE,6B,FF,16,00,
-32756,00000418,false,Rx,0,8,F6,02,54,FE,79,FF,23,00,
-32750,00000418,false,Rx,0,8,F3,02,54,FE,97,FF,2A,00,
-32741,00000418,false,Rx,0,8,DA,02,63,FE,99,FF,23,00,
-32728,00000418,false,Rx,0,8,DC,02,67,FE,6A,FF,19,00,
-32717,00000418,false,Rx,0,8,F6,02,59,FE,6A,FF,1B,00,
-32710,00000418,false,Rx,0,8,F7,02,4E,FE,9D,FF,28,00,
-32710,00000418,false,Rx,0,8,DB,02,62,FE,9C,FF,2E,00,
-32687,00000418,false,Rx,0,8,D8,02,6D,FE,6F,FF,24,00,
-32683,00000418,false,Rx,0,8,F2,02,56,FE,6F,FF,17,00,
-32683,00000418,false,Rx,0,8,F1,02,50,FE,96,FF,18,00,
-32682,00000418,false,Rx,0,8,DA,02,67,FE,99,FF,23,00,
-32676,00000418,false,Rx,0,8,DC,02,66,FE,64,FF,2A,00,
-32664,00000418,false,Rx,0,8,FA,02,4C,FE,7D,FF,25,00,
-32658,00000418,false,Rx,0,8,F0,02,53,FE,96,FF,1F,00,
-32653,00000418,false,Rx,0,8,D1,02,6F,FE,7B,FF,22,00,
-32647,00000418,false,Rx,0,8,DA,02,64,FE,62,FF,29,00,
-32643,00000418,false,Rx,0,8,F6,02,4D,FE,90,FF,2A,00,
-32892,00000418,false,Rx,0,8,E6,02,62,FE,A6,FF,22,00,
-32883,00000418,false,Rx,0,8,D7,02,69,FE,66,FF,1B,00,
-32879,00000418,false,Rx,0,8,F6,02,54,FE,69,FF,1A,00,
-32864,00000418,false,Rx,0,8,F1,02,53,FE,95,FF,1C,00,
-32842,00000418,false,Rx,0,8,D2,02,6D,FE,90,FF,1D,00,
-32842,00000418,false,Rx,0,8,DE,02,65,FE,65,FF,1E,00,
-32838,00000418,false,Rx,0,8,FB,02,4C,FE,9F,FF,1E,00,
-32837,00000418,false,Rx,0,8,E2,02,5F,FE,A0,FF,1F,00,
-32837,00000418,false,Rx,0,8,D7,02,68,FE,6E,FF,1C,00,
-32829,00000418,false,Rx,0,8,F6,02,51,FE,6E,FF,1A,00,
-32824,00000418,false,Rx,0,8,EA,02,51,FE,A8,FF,1B,00,
-32818,00000610,false,Rx,0,2,02,0F,00,00,00,00,00,00,
-32807,00000418,false,Rx,0,8,CF,02,6F,FE,74,FF,20,00,
-32800,00000418,false,Rx,0,8,E0,02,5E,FE,5B,FF,24,00,
-32793,00000418,false,Rx,0,8,F1,02,4F,FE,91,FF,23,00,
-32788,00000418,false,Rx,0,8,D5,02,68,FE,8F,FF,20,00,
-32780,00000418,false,Rx,0,8,E1,02,63,FE,5D,FF,1E,00,
-32775,00000418,false,Rx,0,8,F8,02,48,FE,97,FF,1E,00,
-32774,00000418,false,Rx,0,8,DC,02,64,FE,A6,FF,1F,00,
-32512,00000418,false,Rx,0,8,DB,02,6B,FE,69,FF,1E,00,
-32505,00000418,false,Rx,0,8,F2,02,49,FE,8B,FF,1D,00,
-32499,00000418,false,Rx,0,8,E0,02,62,FE,A2,FF,1E,00,
-32489,00000418,false,Rx,0,8,DE,02,69,FE,6E,FF,1F,00,
-32484,00000418,false,Rx,0,8,F8,02,44,FE,8E,FF,20,00,
-32477,00000418,false,Rx,0,8,E5,02,5D,FE,A5,FF,21,00,
-32470,00000418,false,Rx,0,8,D3,02,6F,FE,6D,FF,22,00,
-32463,00000418,false,Rx,0,8,F3,02,4D,FE,7D,FF,24,00,
-32458,00000418,false,Rx,0,8,EA,02,57,FE,A4,FF,23,00,
-32447,00000418,false,Rx,0,8,D5,02,75,FE,71,FF,20,00,
-32440,00000418,false,Rx,0,8,EB,02,53,FE,5F,FF,1E,00,
-32434,00000418,false,Rx,0,8,F2,02,51,FE,9B,FF,20,00,
-32428,00000418,false,Rx,0,8,CF,02,76,FE,99,FF,23,00,
-32421,00000418,false,Rx,0,8,DC,02,62,FE,61,FF,24,00,
-32410,00000418,false,Rx,0,8,F6,02,4E,FE,90,FF,21,00,
-32405,00000418,false,Rx,0,8,E2,02,6A,FE,A8,FF,1F,00,
-32399,00000418,false,Rx,0,8,DA,02,63,FE,57,FF,22,00,
-32638,00000418,false,Rx,0,8,01,03,4C,FE,7C,FF,28,00,
-32633,00000418,false,Rx,0,8,E6,02,5D,FE,A4,FF,2B,00,
-32633,00000418,false,Rx,0,8,CE,02,66,FE,72,FF,26,00,
-32628,00000418,false,Rx,0,8,ED,02,57,FE,5E,FF,20,00,
-32621,00000418,false,Rx,0,8,EC,02,5C,FE,95,FF,1E,00,
-32610,00000418,false,Rx,0,8,D2,02,61,FE,95,FF,22,00,
-32604,00000418,false,Rx,0,8,EB,02,61,FE,64,FF,27,00,
-32599,00000418,false,Rx,0,8,F2,02,53,FE,92,FF,26,00,
-32588,00000418,false,Rx,0,8,E0,02,53,FE,AC,FF,21,00,
-32580,00000418,false,Rx,0,8,E1,02,67,FE,75,FF,1C,00,
-32575,00000418,false,Rx,0,8,ED,02,59,FE,6B,FF,1C,00,
-32563,00000418,false,Rx,0,8,E8,02,4D,FE,A2,FF,1F,00,
-32559,00000418,false,Rx,0,8,D8,02,6D,FE,74,FF,21,00,
-32555,00000418,false,Rx,0,8,E6,02,5A,FE,6A,FF,21,00,
-32548,00000418,false,Rx,0,8,F1,02,4A,FE,A1,FF,1F,00,
-32540,00000418,false,Rx,0,8,D3,02,71,FE,87,FF,1E,00,
-32535,00000418,false,Rx,0,8,E2,02,61,FE,65,FF,21,00,
-32529,00000611,false,Rx,0,1,01,00,00,00,00,00,00,00,
-32525,00000418,false,Rx,0,8,F3,02,52,FE,97,FF,26,00,
-32517,00000418,false,Rx,0,8,D0,02,66,FE,97,FF,28,00,
-32513,00000418,false,Rx,0,8,E8,02,61,FE,6A,FF,27,00,
-32253,00000418,false,Rx,0,8,F5,02,4F,FE,A3,FF,24,00,
-32245,00000418,false,Rx,0,8,CF,02,67,FE,9A,FF,23,00,
-32236,00000418,false,Rx,0,8,EB,02,5E,FE,6D,FF,24,00,
-32231,00000418,false,Rx,0,8,E8,02,58,FE,97,FF,26,00,
-32219,00000418,false,Rx,0,8,D1,02,66,FE,84,FF,27,00,
-32215,00000418,false,Rx,0,8,F0,02,5C,FE,68,FF,27,00,
-32205,00000418,false,Rx,0,8,E9,02,55,FE,AA,FF,25,00,
-32201,00000418,false,Rx,0,8,D4,02,64,FE,89,FF,24,00,
-32196,00000418,false,Rx,0,8,E6,02,6B,FE,74,FF,21,00,
-32189,00000418,false,Rx,0,8,ED,02,53,FE,8D,FF,1E,00,
-32176,00000418,false,Rx,0,8,E8,02,54,FE,A8,FF,1C,00,
-32171,00000418,false,Rx,0,8,DD,02,6D,FE,86,FF,1B,00,
-32167,00000418,false,Rx,0,8,E4,02,57,FE,64,FF,1C,00,
-32159,00000418,false,Rx,0,8,F5,02,4D,FE,9D,FF,1E,00,
-32154,00000418,false,Rx,0,8,D0,02,68,FE,A3,FF,1F,00,
-32146,00000418,false,Rx,0,8,DA,02,65,FE,6E,FF,20,00,
-32139,00000418,false,Rx,0,8,FB,02,4E,FE,95,FF,20,00,
-32135,00000418,false,Rx,0,8,DC,02,59,FE,AC,FF,21,00,
-32380,00000418,false,Rx,0,8,D8,02,62,FE,6D,FF,22,00,
-32376,00000418,false,Rx,0,8,ED,02,58,FE,67,FF,23,00,
-32368,00000418,false,Rx,0,8,E8,02,4E,FE,A0,FF,23,00,
-32359,00000418,false,Rx,0,8,D6,02,5D,FE,AA,FF,20,00,
-32354,00000418,false,Rx,0,8,DA,02,67,FE,6E,FF,1D,00,
-32347,00000418,false,Rx,0,8,EC,02,4B,FE,87,FF,1D,00,
-32343,00000418,false,Rx,0,8,E8,02,54,FE,A8,FF,21,00,
-32329,00000418,false,Rx,0,8,D1,02,68,FE,70,FF,24,00,
-32321,00000418,false,Rx,0,8,EA,02,4F,FE,67,FF,22,00,
-32314,00000418,false,Rx,0,8,E7,02,4F,FE,A7,FF,1B,00,
-32314,00000610,false,Rx,0,2,02,0F,00,00,00,00,00,00,
-32304,00000418,false,Rx,0,8,CE,02,67,FE,70,FF,17,00,
-32296,00000418,false,Rx,0,8,E6,02,54,FE,4B,FF,1B,00,
-32292,00000418,false,Rx,0,8,E9,02,52,FE,9E,FF,22,00,
-32285,00000418,false,Rx,0,8,CB,02,69,FE,74,FF,24,00,
-32279,00000418,false,Rx,0,8,EA,02,49,FE,61,FF,1E,00,
-32272,00000418,false,Rx,0,8,E9,02,52,FE,A7,FF,16,00,
-32267,00000418,false,Rx,0,8,CA,02,5F,FE,72,FF,14,00,
-32000,00000418,false,Rx,0,8,F4,02,4C,FE,81,FF,18,00,
-31993,00000418,false,Rx,0,8,DF,02,5C,FE,A6,FF,1F,00,
-31989,00000418,false,Rx,0,8,CE,02,5F,FE,63,FF,23,00,
-31984,00000418,false,Rx,0,8,F4,02,3B,FE,8A,FF,23,00,
-31972,00000418,false,Rx,0,8,DD,02,64,FE,C2,FF,22,00,
-31972,00000418,false,Rx,0,8,D5,02,5F,FE,67,FF,22,00,
-31966,00000418,false,Rx,0,8,EF,02,46,FE,91,FF,22,00,
-31961,00000418,false,Rx,0,8,CA,02,68,FE,A0,FF,22,00,
-31951,00000418,false,Rx,0,8,E0,02,50,FE,61,FF,23,00,
-31946,00000418,false,Rx,0,8,EF,02,49,FE,A8,FF,24,00,
-31938,00000418,false,Rx,0,8,C7,02,69,FE,86,FF,23,00,
-31930,00000418,false,Rx,0,8,E8,02,4B,FE,5D,FF,21,00,
-31924,00000418,false,Rx,0,8,DF,02,4C,FE,A9,FF,1F,00,
-31918,00000418,false,Rx,0,8,CE,02,66,FE,72,FF,1E,00,
-31909,00000418,false,Rx,0,8,F6,02,40,FE,78,FF,1E,00,
-31904,00000418,false,Rx,0,8,D9,02,55,FE,B0,FF,21,00,
-31895,00000418,false,Rx,0,8,D8,02,61,FE,6D,FF,25,00,
-31890,00000418,false,Rx,0,8,ED,02,43,FE,96,FF,2A,00,
-32127,00000418,false,Rx,0,8,CB,02,5D,FE,9F,FF,2D,00,
-32118,00000418,false,Rx,0,8,E9,02,55,FE,72,FF,2C,00,
-32118,00000418,false,Rx,0,8,E6,02,46,FE,A8,FF,29,00,
-32115,00000418,false,Rx,0,8,CC,02,60,FE,7D,FF,27,00,
-32109,00000418,false,Rx,0,8,F1,02,51,FE,71,FF,28,00,
-32104,00000418,false,Rx,0,8,D8,02,56,FE,A6,FF,26,00,
-32097,00000418,false,Rx,0,8,D5,02,5C,FE,73,FF,21,00,
-32089,00000418,false,Rx,0,8,F9,02,43,FE,8E,FF,1D,00,
-32082,00000418,false,Rx,0,8,D8,02,59,FE,B7,FF,1F,00,
-32073,00000418,false,Rx,0,8,DC,02,5D,FE,6D,FF,28,00,
-32065,00000418,false,Rx,0,8,EC,02,52,FE,9C,FF,31,00,
-32059,00000418,false,Rx,0,8,C9,02,5F,FE,95,FF,31,00,
-32051,00000418,false,Rx,0,8,EB,02,4C,FE,70,FF,2A,00,
-32047,00000418,false,Rx,0,8,E5,02,4E,FE,B1,FF,24,00,
-32041,00000418,false,Rx,0,8,D5,02,5E,FE,7A,FF,23,00,
-32028,00000611,false,Rx,0,1,01,00,00,00,00,00,00,00,
-32022,00000418,false,Rx,0,8,F6,02,4B,FE,81,FF,27,00,
-32022,00000418,false,Rx,0,8,D8,02,62,FE,B1,FF,2B,00,
-32018,00000418,false,Rx,0,8,E1,02,5A,FE,68,FF,2B,00,
-32011,00000418,false,Rx,0,8,F6,02,4C,FE,A5,FF,29,00,
-32003,00000418,false,Rx,0,8,D3,02,62,FE,B3,FF,27,00,
-31742,00000418,false,Rx,0,8,E3,02,57,FE,68,FF,27,00,
-31732,00000418,false,Rx,0,8,EC,02,4B,FE,A7,FF,28,00,
-31723,00000418,false,Rx,0,8,CE,02,60,FE,A2,FF,27,00,
-31719,00000418,false,Rx,0,8,E7,02,5B,FE,6A,FF,25,00,
-31714,00000418,false,Rx,0,8,F1,02,48,FE,A1,FF,21,00,
-31708,00000418,false,Rx,0,8,D6,02,5D,FE,BA,FF,1F,00,
-31693,00000418,false,Rx,0,8,E5,02,60,FE,75,FF,21,00,
-31687,00000418,false,Rx,0,8,EC,02,4F,FE,9E,FF,23,00,
-31681,00000418,false,Rx,0,8,D4,02,5E,FE,A6,FF,22,00,
-31666,00000418,false,Rx,0,8,E6,02,60,FE,69,FF,1F,00,
-31661,00000418,false,Rx,0,8,F0,02,4B,FE,9F,FF,1E,00,
-31661,00000418,false,Rx,0,8,DF,02,5A,FE,B3,FF,22,00,
-31650,00000418,false,Rx,0,8,DA,02,68,FE,77,FF,27,00,
-31645,00000418,false,Rx,0,8,ED,02,4E,FE,8D,FF,27,00,
-31635,00000418,false,Rx,0,8,E5,02,4E,FE,AC,FF,22,00,
-31629,00000418,false,Rx,0,8,DB,02,6B,FE,86,FF,1E,00,
-31623,00000418,false,Rx,0,8,E8,02,4D,FE,6C,FF,1E,00,
-31619,00000418,false,Rx,0,8,EA,02,53,FE,AF,FF,21,00,
-31871,00000418,false,Rx,0,8,D6,02,6A,FE,7A,FF,23,00,
-31865,00000418,false,Rx,0,8,E1,02,4E,FE,62,FF,20,00,
-31857,00000418,false,Rx,0,8,E7,02,4E,FE,A5,FF,1E,00,
-31847,00000418,false,Rx,0,8,D2,02,6D,FE,73,FF,21,00,
-31841,00000418,false,Rx,0,8,F1,02,44,FE,7D,FF,26,00,
-31834,00000418,false,Rx,0,8,E5,02,58,FE,AC,FF,2B,00,
-31817,00000418,false,Rx,0,8,D0,02,6D,FE,72,FF,2B,00,
-31811,00000418,false,Rx,0,8,EE,02,45,FE,95,FF,26,00,
-31811,00000418,false,Rx,0,8,DD,02,62,FE,B6,FF,22,00,
-31811,00000610,false,Rx,0,2,02,0F,00,00,00,00,00,00,
-31806,00000418,false,Rx,0,8,DD,02,64,FE,5D,FF,22,00,
-31801,00000418,false,Rx,0,8,F2,02,4B,FE,9C,FF,25,00,
-31795,00000418,false,Rx,0,8,CA,02,6F,FE,8A,FF,28,00,
-31789,00000418,false,Rx,0,8,DF,02,57,FE,5B,FF,26,00,
-31780,00000418,false,Rx,0,8,EA,02,4E,FE,A4,FF,20,00,
-31776,00000418,false,Rx,0,8,CF,02,67,FE,73,FF,1C,00,
-31766,00000418,false,Rx,0,8,F3,02,4E,FE,6F,FF,1D,00,
-31761,00000418,false,Rx,0,8,E1,02,56,FE,A7,FF,22,00,
-31753,00000418,false,Rx,0,8,CE,02,68,FE,6D,FF,26,00,
-31745,00000418,false,Rx,0,8,F3,02,54,FE,8B,FF,23,00,
-31483,00000418,false,Rx,0,8,DB,02,5D,FE,AB,FF,1D,00,
-31477,00000418,false,Rx,0,8,D8,02,61,FE,6C,FF,18,00,
-31465,00000418,false,Rx,0,8,F6,02,49,FE,97,FF,1A,00,
-31458,00000418,false,Rx,0,8,D9,02,5F,FE,B3,FF,1E,00,
-31454,00000418,false,Rx,0,8,D6,02,63,FE,76,FF,22,00,
-31448,00000418,false,Rx,0,8,F2,02,4F,FE,8F,FF,24,00,
-31438,00000418,false,Rx,0,8,D4,02,62,FE,9C,FF,24,00,
-31435,00000418,false,Rx,0,8,E2,02,58,FE,69,FF,25,00,
-31425,00000418,false,Rx,0,8,F3,02,4E,FE,A5,FF,25,00,
-31420,00000418,false,Rx,0,8,C7,02,69,FE,8D,FF,23,00,
-31415,00000418,false,Rx,0,8,E0,02,4E,FE,61,FF,20,00,
-31394,00000418,false,Rx,0,8,EA,02,4D,FE,AC,FF,20,00,
-31387,00000418,false,Rx,0,8,CE,02,65,FE,7E,FF,23,00,
-31386,00000418,false,Rx,0,8,F3,02,4E,FE,6C,FF,27,00,
-31379,00000418,false,Rx,0,8,E5,02,54,FE,B4,FF,29,00,
-31373,00000418,false,Rx,0,8,D1,02,61,FE,79,FF,28,00,
-31613,00000418,false,Rx,0,8,F7,02,4D,FE,84,FF,27,00,
-31608,00000418,false,Rx,0,8,E0,02,5E,FE,BE,FF,27,00,
-31608,00000418,false,Rx,0,8,DD,02,5C,FE,69,FF,27,00,
-31601,00000418,false,Rx,0,8,F4,02,44,FE,9A,FF,25,00,
-31595,00000418,false,Rx,0,8,D6,02,5E,FE,BE,FF,24,00,
-31592,00000418,false,Rx,0,8,E3,02,62,FE,77,FF,22,00,
-31585,00000418,false,Rx,0,8,ED,02,4F,FE,98,FF,22,00,
-31580,00000418,false,Rx,0,8,D6,02,61,FE,A4,FF,20,00,
-31570,00000418,false,Rx,0,8,E9,02,58,FE,6C,FF,1D,00,
-31566,00000418,false,Rx,0,8,E5,02,4C,FE,AD,FF,1E,00,
-31554,00000418,false,Rx,0,8,D1,02,64,FE,91,FF,21,00,
-31550,00000418,false,Rx,0,8,E2,02,5A,FE,6A,FF,25,00,
-31540,00000418,false,Rx,0,8,E1,02,4A,FE,A8,FF,24,00,
-31536,00000418,false,Rx,0,8,D8,02,65,FE,88,FF,1E,00,
-31513,00000611,false,Rx,0,1,01,00,00,00,00,00,00,00,
-31512,00000418,false,Rx,0,8,E2,02,56,FE,73,FF,18,00,
-31508,00000418,false,Rx,0,8,E5,02,47,FE,B9,FF,19,00,
-31508,00000418,false,Rx,0,8,D9,02,64,FE,86,FF,1F,00,
-31508,00000418,false,Rx,0,8,E5,02,53,FE,6F,FF,25,00,
-31501,00000418,false,Rx,0,8,E4,02,48,FE,AD,FF,28,00,
-31495,00000418,false,Rx,0,8,D8,02,64,FE,7F,FF,27,00,
-31232,00000418,false,Rx,0,8,ED,02,4D,FE,81,FF,25,00,
-31225,00000418,false,Rx,0,8,E5,02,4D,FE,AD,FF,24,00,
-31218,00000418,false,Rx,0,8,D4,02,6B,FE,7D,FF,25,00,
-31209,00000418,false,Rx,0,8,F1,02,4B,FE,91,FF,24,00,
-31205,00000418,false,Rx,0,8,DE,02,5D,FE,B1,FF,21,00,
-31194,00000418,false,Rx,0,8,D4,02,63,FE,6F,FF,21,00,
-31188,00000418,false,Rx,0,8,F5,02,4D,FE,9D,FF,25,00,
-31178,00000418,false,Rx,0,8,D4,02,5D,FE,B5,FF,2A,00,
-31173,00000418,false,Rx,0,8,DC,02,5C,FE,6C,FF,2B,00,
-31168,00000418,false,Rx,0,8,EE,02,53,FE,9E,FF,26,00,
-31152,00000418,false,Rx,0,8,C8,02,63,FE,9F,FF,1F,00,
-31146,00000418,false,Rx,0,8,E5,02,51,FE,70,FF,1A,00,
-31140,00000418,false,Rx,0,8,EC,02,51,FE,B0,FF,1C,00,
-31135,00000418,false,Rx,0,8,C7,02,65,FE,80,FF,20,00,
-31129,00000418,false,Rx,0,8,E9,02,4D,FE,63,FF,23,00,
-31119,00000418,false,Rx,0,8,E2,02,59,FE,AC,FF,22,00,
-31113,00000418,false,Rx,0,8,CA,02,63,FE,71,FF,1E,00,
-31109,00000418,false,Rx,0,8,F1,02,4D,FE,57,FF,1C,00,
-31357,00000418,false,Rx,0,8,E2,02,58,FE,AE,FF,1D,00,
-31349,00000418,false,Rx,0,8,CD,02,63,FE,7F,FF,1F,00,
-31344,00000418,false,Rx,0,8,E4,02,55,FE,68,FF,21,00,
-31335,00000418,false,Rx,0,8,E0,02,52,FE,9D,FF,22,00,
-31330,00000418,false,Rx,0,8,CD,02,59,FE,97,FF,20,00,
-31325,00000418,false,Rx,0,8,E3,02,5C,FE,73,FF,1D,00,
-31319,00000418,false,Rx,0,8,E7,02,51,FE,9F,FF,1A,00,
-31305,00000418,false,Rx,0,8,D7,02,57,FE,B3,FF,1A,00,
-31305,00000610,false,Rx,0,2,02,0F,00,00,00,00,00,00,
-31299,00000418,false,Rx,0,8,D9,02,63,FE,64,FF,1C,00,
-31293,00000418,false,Rx,0,8,E3,02,4F,FE,96,FF,1E,00,
-31286,00000418,false,Rx,0,8,D3,02,5B,FE,A5,FF,1E,00,
-31281,00000418,false,Rx,0,8,D8,02,5D,FE,69,FF,20,00,
-31274,00000418,false,Rx,0,8,EE,02,4F,FE,9C,FF,23,00,
-31269,00000418,false,Rx,0,8,CD,02,65,FE,94,FF,26,00,
-31265,00000418,false,Rx,0,8,D2,02,56,FE,66,FF,26,00,
-31254,00000418,false,Rx,0,8,E8,02,48,FE,A4,FF,22,00,
-31248,00000418,false,Rx,0,8,CD,02,69,FE,78,FF,1E,00,
-31243,00000418,false,Rx,0,8,E6,02,4A,FE,62,FF,1F,00,
-31233,00000418,false,Rx,0,8,E7,02,51,FE,B9,FF,23,00,
-30972,00000418,false,Rx,0,8,C9,02,65,FE,7C,FF,26,00,
-30966,00000418,false,Rx,0,8,EB,02,43,FE,95,FF,26,00,
-30954,00000418,false,Rx,0,8,DC,02,63,FE,B4,FF,26,00,
-30949,00000418,false,Rx,0,8,D4,02,5D,FE,6A,FF,29,00,
-30944,00000418,false,Rx,0,8,F2,02,40,FE,9B,FF,2C,00,
-30938,00000418,false,Rx,0,8,D1,02,63,FE,AD,FF,2D,00,
-30932,00000418,false,Rx,0,8,D3,02,58,FE,69,FF,2A,00,
-30921,00000418,false,Rx,0,8,EC,02,4B,FE,9B,FF,24,00,
-30914,00000418,false,Rx,0,8,CA,02,6B,FE,8B,FF,1D,00,
-30907,00000418,false,Rx,0,8,E0,02,4E,FE,61,FF,19,00,
-30903,00000418,false,Rx,0,8,E6,02,49,FE,AB,FF,17,00,
-30894,00000418,false,Rx,0,8,C6,02,65,FE,7F,FF,1A,00,
-30888,00000418,false,Rx,0,8,E7,02,4A,FE,64,FF,20,00,
-30874,00000418,false,Rx,0,8,DF,02,54,FE,AF,FF,24,00,
-30870,00000418,false,Rx,0,8,CE,02,61,FE,78,FF,24,00,
-30864,00000418,false,Rx,0,8,F5,02,44,FE,7B,FF,20,00,
-30850,00000418,false,Rx,0,8,D9,02,59,FE,B0,FF,1C,00,
-31101,00000418,false,Rx,0,8,D2,02,62,FE,78,FF,1D,00,
-31100,00000418,false,Rx,0,8,F5,02,4C,FE,9B,FF,1F,00,
-31095,00000418,false,Rx,0,8,D2,02,5F,FE,B0,FF,21,00,
-31089,00000418,false,Rx,0,8,DA,02,5C,FE,6D,FF,21,00,
-31081,00000418,false,Rx,0,8,EF,02,44,FE,9C,FF,23,00,
-31071,00000418,false,Rx,0,8,CB,02,5E,FE,B8,FF,28,00,
-31064,00000418,false,Rx,0,8,DB,02,5B,FE,72,FF,2C,00,
-31060,00000418,false,Rx,0,8,E7,02,4E,FE,9F,FF,2B,00,
-31052,00000418,false,Rx,0,8,CC,02,5E,FE,A3,FF,26,00,
-31046,00000418,false,Rx,0,8,E8,02,5A,FE,75,FF,22,00,
-31040,00000418,false,Rx,0,8,E5,02,52,FE,AE,FF,23,00,
-31029,00000611,false,Rx,0,1,01,00,00,00,00,00,00,00,
-31022,00000418,false,Rx,0,8,C5,02,64,FE,97,FF,27,00,
-31022,00000418,false,Rx,0,8,E1,02,54,FE,67,FF,29,00,
-31017,00000418,false,Rx,0,8,DC,02,4E,FE,AC,FF,26,00,
-30999,00000418,false,Rx,0,8,D0,02,5D,FE,80,FF,21,00,
-30995,00000418,false,Rx,0,8,EA,02,4D,FE,6E,FF,1F,00,
-30995,00000418,false,Rx,0,8,DA,02,4E,FE,B6,FF,22,00,
-30989,00000418,false,Rx,0,8,D2,02,5C,FE,7C,FF,26,00,
-30982,00000418,false,Rx,0,8,EA,02,50,FE,79,FF,28,00,
-30719,00000418,false,Rx,0,8,DC,02,59,FE,AF,FF,28,00,
-30714,00000418,false,Rx,0,8,D5,02,61,FE,7B,FF,26,00,
-30701,00000418,false,Rx,0,8,E8,02,49,FE,7E,FF,24,00,
-30697,00000418,false,Rx,0,8,E0,02,58,FE,B5,FF,23,00,
-30690,00000418,false,Rx,0,8,CE,02,5F,FE,7A,FF,22,00,
-30684,00000418,false,Rx,0,8,E6,02,4F,FE,7E,FF,21,00,
-30678,00000418,false,Rx,0,8,E4,02,53,FE,B3,FF,21,00,
-30670,00000418,false,Rx,0,8,CC,02,63,FE,84,FF,21,00,
-30656,00000418,false,Rx,0,8,E3,02,4B,FE,66,FF,22,00,
-30644,00000418,false,Rx,0,8,E5,02,4D,FE,B6,FF,24,00,
-30633,00000418,false,Rx,0,8,C7,02,64,FE,7F,FF,27,00,
-30633,00000418,false,Rx,0,8,E2,02,4D,FE,60,FF,27,00,
-30626,00000418,false,Rx,0,8,E2,02,50,FE,A9,FF,23,00,
-30626,00000418,false,Rx,0,8,C2,02,63,FE,7C,FF,1D,00,
-30621,00000418,false,Rx,0,8,E9,02,47,FE,69,FF,1B,00,
-30612,00000418,false,Rx,0,8,E2,02,54,FE,BD,FF,1E,00,
-30606,00000418,false,Rx,0,8,C7,02,5F,FE,7C,FF,23,00,
-30601,00000418,false,Rx,0,8,F1,02,48,FE,7C,FF,26,00,
-30596,00000418,false,Rx,0,8,D9,02,62,FE,B2,FF,24,00,
-30843,00000418,false,Rx,0,8,CD,02,5F,FE,6B,FF,20,00,
-30837,00000418,false,Rx,0,8,F1,02,47,FE,96,FF,20,00,
-30823,00000418,false,Rx,0,8,CA,02,64,FE,B4,FF,22,00,
-30818,00000418,false,Rx,0,8,D6,02,56,FE,67,FF,23,00,
-30809,00000418,false,Rx,0,8,E0,02,49,FE,A0,FF,21,00,
-30801,00000418,false,Rx,0,8,C3,02,68,FE,83,FF,1C,00,
-30801,00000610,false,Rx,0,2,02,0F,00,00,00,00,00,00,
-30793,00000418,false,Rx,0,8,EC,02,44,FE,68,FF,1A,00,
-30786,00000418,false,Rx,0,8,D7,02,59,FE,B1,FF,1C,00,
-30775,00000418,false,Rx,0,8,D0,02,64,FE,73,FF,1F,00,
-30771,00000418,false,Rx,0,8,E9,02,49,FE,97,FF,20,00,
-30771,00000418,false,Rx,0,8,C0,02,66,FE,96,FF,1E,00,
-30765,00000418,false,Rx,0,8,E2,02,4F,FE,65,FF,1C,00,
-30757,00000418,false,Rx,0,8,D9,02,52,FE,A3,FF,1D,00,
-30752,00000418,false,Rx,0,8,CE,02,63,FE,70,FF,22,00,
-30747,00000418,false,Rx,0,8,EB,02,4C,FE,A2,FF,28,00,
-30738,00000418,false,Rx,0,8,C2,02,64,FE,9C,FF,2A,00,
-30733,00000418,false,Rx,0,8,E1,02,55,FE,69,FF,29,00,
-30721,00000418,false,Rx,0,8,E1,02,4C,FE,B4,FF,25,00,
-30454,00000418,false,Rx,0,8,C8,02,62,FE,81,FF,24,00,
-30443,00000418,false,Rx,0,8,E3,02,52,FE,6D,FF,28,00,
-30432,00000418,false,Rx,0,8,D4,02,59,FE,AE,FF,2C,00,
-30431,00000418,false,Rx,0,8,DA,02,61,FE,69,FF,2C,00,
-30427,00000418,false,Rx,0,8,E1,02,47,FE,B1,FF,27,00,
-30423,00000418,false,Rx,0,8,D0,02,65,FE,8C,FF,21,00,
-30414,00000418,false,Rx,0,8,DC,02,53,FE,71,FF,21,00,
-30409,00000418,false,Rx,0,8,D8,02,4F,FE,AF,FF,26,00,
-30402,00000418,false,Rx,0,8,D1,02,63,FE,6F,FF,2A,00,
-30398,00000418,false,Rx,0,8,E9,02,47,FE,9B,FF,27,00,
-30389,00000418,false,Rx,0,8,CB,02,65,FE,A1,FF,22,00,
-30384,00000418,false,Rx,0,8,D7,02,50,FE,66,FF,21,00,
-30379,00000418,false,Rx,0,8,E0,02,56,FE,AD,FF,26,00,
-30371,00000418,false,Rx,0,8,CA,02,60,FE,72,FF,29,00,
-30363,00000418,false,Rx,0,8,EF,02,4A,FE,9C,FF,27,00,
-30357,00000418,false,Rx,0,8,C0,02,6E,FE,96,FF,21,00,
-30350,00000418,false,Rx,0,8,DF,02,4B,FE,61,FF,1E,00,
-30340,00000418,false,Rx,0,8,D8,02,5C,FE,B3,FF,21,00,
-30591,00000418,false,Rx,0,8,D3,02,62,FE,63,FF,25,00,
-30585,00000418,false,Rx,0,8,E2,02,48,FE,A8,FF,24,00,
-30574,00000418,false,Rx,0,8,C6,02,62,FE,7C,FF,20,00,
-30570,00000418,false,Rx,0,8,ED,02,55,FE,9D,FF,20,00,
-30563,00000418,false,Rx,0,8,C1,02,65,FE,8F,FF,25,00,
-30553,00000418,false,Rx,0,8,ED,02,4D,FE,69,FF,28,00,
-30548,00000418,false,Rx,0,8,CB,02,64,FE,BB,FF,26,00,
-30540,00000418,false,Rx,0,8,D9,02,51,FE,56,FF,22,00,
-30535,00000418,false,Rx,0,8,D1,02,5E,FE,AA,FF,22,00,
-30530,00000611,false,Rx,0,1,01,00,00,00,00,00,00,00,
-30523,00000418,false,Rx,0,8,DD,02,5D,FE,5E,FF,26,00,
-30517,00000418,false,Rx,0,8,D0,02,59,FE,A6,FF,28,00,
-30510,00000418,false,Rx,0,8,D3,02,62,FE,66,FF,25,00,
-30505,00000418,false,Rx,0,8,DB,02,5A,FE,A5,FF,20,00,
-30501,00000418,false,Rx,0,8,D0,02,5D,FE,63,FF,1E,00,
-30488,00000418,false,Rx,0,8,E1,02,54,FE,A1,FF,20,00,
-30484,00000418,false,Rx,0,8,CA,02,69,FE,77,FF,22,00,
-30478,00000418,false,Rx,0,8,E1,02,55,FE,95,FF,22,00,
-30468,00000418,false,Rx,0,8,C7,02,6D,FE,74,FF,22,00,
-30207,00000418,false,Rx,0,8,E9,02,58,FE,76,FF,23,00,
-30202,00000418,false,Rx,0,8,C7,02,61,FE,A8,FF,24,00,
-30194,00000418,false,Rx,0,8,D9,02,57,FE,59,FF,23,00,
-30188,00000418,false,Rx,0,8,D3,02,61,FE,A7,FF,22,00,
-30178,00000418,false,Rx,0,8,D6,02,63,FE,5E,FF,25,00,
-30175,00000418,false,Rx,0,8,D9,02,4E,FE,A5,FF,2B,00,
-30165,00000418,false,Rx,0,8,CF,02,71,FE,67,FF,2F,00,
-30158,00000418,false,Rx,0,8,D8,02,50,FE,A0,FF,2D,00,
-30154,00000418,false,Rx,0,8,CD,02,69,FE,69,FF,25,00,
-30145,00000418,false,Rx,0,8,DE,02,55,FE,9A,FF,1D,00,
-30133,00000418,false,Rx,0,8,CB,02,6A,FE,73,FF,1B,00,
-30129,00000418,false,Rx,0,8,DD,02,51,FE,9C,FF,22,00,
-30115,00000418,false,Rx,0,8,CB,02,71,FE,73,FF,2C,00,
-30110,00000418,false,Rx,0,8,DD,02,4D,FE,92,FF,34,00,
-30110,00000418,false,Rx,0,8,CE,02,69,FE,73,FF,34,00,
-30103,00000418,false,Rx,0,8,E4,02,56,FE,B3,FF,2E,00,
-30095,00000418,false,Rx,0,8,CA,02,6A,FE,70,FF,27,00,
-30086,00000418,false,Rx,0,8,DC,02,4E,FE,98,FF,24,00,
-30081,00000418,false,Rx,0,8,CE,02,6A,FE,72,FF,24,00,
-30330,00000418,false,Rx,0,8,DA,02,50,FE,9A,FF,25,00,
-30325,00000418,false,Rx,0,8,D0,02,6B,FE,6D,FF,24,00,
-30312,00000418,false,Rx,0,8,DB,02,53,FE,A9,FF,1F,00,
-30303,00000418,false,Rx,0,8,D1,02,66,FE,72,FF,1A,00,
-30298,00000418,false,Rx,0,8,D6,02,52,FE,9F,FF,18,00,
-30298,00000610,false,Rx,0,2,02,0F,00,00,00,00,00,00,
-30274,00000418,false,Rx,0,8,D3,02,62,FE,6B,FF,1B,00,
-30268,00000418,false,Rx,0,8,D4,02,59,FE,A5,FF,22,00,
-30268,00000418,false,Rx,0,8,D4,02,56,FE,5D,FF,29,00,
-30268,00000418,false,Rx,0,8,D5,02,64,FE,AB,FF,2B,00,
-30263,00000418,false,Rx,0,8,E1,02,4C,FE,7C,FF,2A,00,
-30258,00000418,false,Rx,0,8,CD,02,68,FE,8E,FF,28,00,
-30251,00000418,false,Rx,0,8,E2,02,4E,FE,90,FF,27,00,
-30244,00000418,false,Rx,0,8,C7,02,6E,FE,70,FF,26,00,
-30239,00000418,false,Rx,0,8,E3,02,4B,FE,A4,FF,23,00,
-30234,00000418,false,Rx,0,8,CD,02,63,FE,68,FF,1F,00,
-30228,00000418,false,Rx,0,8,DB,02,5F,FE,A1,FF,1E,00,
-30217,00000418,false,Rx,0,8,D4,02,53,FE,69,FF,1E,00,
-30210,00000418,false,Rx,0,8,D4,02,6A,FE,B7,FF,1D,00,
-29947,00000418,false,Rx,0,8,E0,02,4F,FE,6A,FF,1B,00,
-29940,00000418,false,Rx,0,8,C5,02,6C,FE,7E,FF,1C,00,
-29909,00000418,false,Rx,0,8,EB,02,4B,FE,A2,FF,21,00,
-29903,00000418,false,Rx,0,8,C6,02,6A,FE,73,FF,26,00,
-29902,00000418,false,Rx,0,8,E1,02,51,FE,9E,FF,25,00,
-29902,00000418,false,Rx,0,8,CA,02,62,FE,5C,FF,1D,00,
-29902,00000418,false,Rx,0,8,DD,02,5C,FE,B1,FF,18,00,
-29898,00000418,false,Rx,0,8,CF,02,5B,FE,5F,FF,1A,00,
-29893,00000418,false,Rx,0,8,D5,02,63,FE,A7,FF,21,00,
-29885,00000418,false,Rx,0,8,DB,02,56,FE,5F,FF,24,00,
-29880,00000418,false,Rx,0,8,D1,02,67,FE,B5,FF,1F,00,
-29870,00000418,false,Rx,0,8,DF,02,51,FE,57,FF,1A,00,
-29865,00000418,false,Rx,0,8,CA,02,6F,FE,B5,FF,1D,00,
-29852,00000418,false,Rx,0,8,E2,02,4C,FE,5A,FF,27,00,
-29846,00000418,false,Rx,0,8,CF,02,64,FE,C1,FF,2B,00,
-30076,00000418,false,Rx,0,8,DF,02,59,FE,54,FF,25,00,
-30070,00000418,false,Rx,0,8,C8,02,65,FE,B0,FF,19,00,
-30070,00000418,false,Rx,0,8,DF,02,55,FE,59,FF,13,00,
-30070,00000418,false,Rx,0,8,D3,02,65,FE,BA,FF,18,00,
-30070,00000418,false,Rx,0,8,D7,02,55,FE,59,FF,22,00,
-30055,00000418,false,Rx,0,8,CC,02,61,FE,B4,FF,26,00,
-30051,00000418,false,Rx,0,8,E6,02,57,FE,63,FF,23,00,
-30051,00000418,false,Rx,0,8,CA,02,65,FE,C4,FF,20,00,
-30045,00000418,false,Rx,0,8,EB,02,4F,FE,59,FF,24,00,
-30039,00000418,false,Rx,0,8,C4,02,70,FE,98,FF,2A,00,
-30032,00000611,false,Rx,0,1,01,00,00,00,00,00,00,00,
-30027,00000418,false,Rx,0,8,ED,02,45,FE,89,FF,2B,00,
-30018,00000418,false,Rx,0,8,C2,02,65,FE,79,FF,25,00,
-30014,00000418,false,Rx,0,8,E4,02,58,FE,9D,FF,1E,00,
-30004,00000418,false,Rx,0,8,C8,02,60,FE,65,FF,1F,00,
-29996,00000418,false,Rx,0,8,DB,02,55,FE,AE,FF,25,00,
-29991,00000418,false,Rx,0,8,D4,02,5D,FE,66,FF,2B,00,
-29981,00000418,false,Rx,0,8,CB,02,60,FE,B8,FF,2C,00,
-29974,00000418,false,Rx,0,8,EB,02,47,FE,6F,FF,29,00,
-29969,00000418,false,Rx,0,8,C3,02,6B,FE,88,FF,28,00,
-29963,00000418,false,Rx,0,8,DF,02,4E,FE,9B,FF,2B,00,
-29955,00000418,false,Rx,0,8,CA,02,60,FE,69,FF,30,00,
-29691,00000418,false,Rx,0,8,D8,02,61,FE,AF,FF,35,00,
-29683,00000418,false,Rx,0,8,D6,02,4D,FE,4F,FF,37,00,
-29679,00000418,false,Rx,0,8,C5,02,6A,FE,A9,FF,37,00,
-29675,00000418,false,Rx,0,8,EB,02,4B,FE,8C,FF,36,00,
-29669,00000418,false,Rx,0,8,BF,02,62,FE,70,FF,35,00,
-29663,00000418,false,Rx,0,8,DD,02,4F,FE,9C,FF,35,00,
-29656,00000418,false,Rx,0,8,D0,02,5B,FE,61,FF,35,00,
-29647,00000418,false,Rx,0,8,D0,02,64,FE,AC,FF,32,00,
-29641,00000418,false,Rx,0,8,DC,02,49,FE,51,FF,2F,00,
-29633,00000418,false,Rx,0,8,BF,02,6F,FE,84,FF,30,00,
-29620,00000418,false,Rx,0,8,E4,02,4A,FE,8F,FF,35,00,
-29613,00000418,false,Rx,0,8,C0,02,6A,FE,67,FF,38,00,
-29609,00000418,false,Rx,0,8,DD,02,56,FE,9B,FF,34,00,
-29598,00000418,false,Rx,0,8,C8,02,5E,FE,54,FF,2A,00,
-29594,00000418,false,Rx,0,8,D8,02,58,FE,A5,FF,20,00,
-29589,00000418,false,Rx,0,8,CB,02,59,FE,55,FF,1C,00,
-29582,00000418,false,Rx,0,8,CF,02,6F,FE,A4,FF,1F,00,
-29577,00000418,false,Rx,0,8,D1,02,51,FE,50,FF,24,00,
-29570,00000418,false,Rx,0,8,D2,02,62,FE,BD,FF,2A,00,
-29819,00000418,false,Rx,0,8,D1,02,52,FE,46,FF,2D,00,
-29814,00000418,false,Rx,0,8,CF,02,65,FE,A6,FF,2D,00,
-29800,00000418,false,Rx,0,8,D0,02,50,FE,4F,FF,28,00,
-29796,00000418,false,Rx,0,8,CD,02,63,FE,B0,FF,20,00,
-29795,00000610,false,Rx,0,2,02,0F,00,00,00,00,00,00,
-29792,00000418,false,Rx,0,8,D4,02,4B,FE,60,FF,1D,00,
-29786,00000418,false,Rx,0,8,C6,02,66,FE,89,FF,23,00,
-29769,00000418,false,Rx,0,8,D8,02,48,FE,7A,FF,30,00,
-29765,00000418,false,Rx,0,8,C3,02,63,FE,75,FF,36,00,
-29765,00000418,false,Rx,0,8,D7,02,4B,FE,8D,FF,30,00,
-29755,00000418,false,Rx,0,8,C5,02,64,FE,6C,FF,23,00,
-29750,00000418,false,Rx,0,8,D4,02,49,FE,A7,FF,1A,00,
-29744,00000418,false,Rx,0,8,CE,02,59,FE,68,FF,1D,00,
-29736,00000418,false,Rx,0,8,CD,02,5B,FE,A7,FF,29,00,
-29729,00000418,false,Rx,0,8,D3,02,4A,FE,5D,FF,32,00,
-29723,00000418,false,Rx,0,8,C4,02,5E,FE,81,FF,30,00,
-29717,00000418,false,Rx,0,8,D8,02,50,FE,9F,FF,27,00,
-29708,00000418,false,Rx,0,8,CD,02,5C,FE,55,FF,1F,00,
-29440,00000418,false,Rx,0,8,CA,02,58,FE,A3,FF,1F,00,
-29436,00000418,false,Rx,0,8,D9,02,51,FE,58,FF,25,00,
-29430,00000418,false,Rx,0,8,C0,02,5F,FE,76,FF,2A,00,
-29417,00000418,false,Rx,0,8,DB,02,51,FE,AA,FF,2B,00,
-29408,00000418,false,Rx,0,8,CC,02,60,FE,5E,FF,2C,00,
-29402,00000418,false,Rx,0,8,CA,02,5F,FE,A7,FF,31,00,
-29402,00000418,false,Rx,0,8,DF,02,48,FE,51,FF,37,00,
-29397,00000418,false,Rx,0,8,BD,02,6C,FE,95,FF,3A,00,
-29390,00000418,false,Rx,0,8,E7,02,4C,FE,99,FF,39,00,
-29381,00000418,false,Rx,0,8,C4,02,5F,FE,67,FF,35,00,
-29372,00000418,false,Rx,0,8,DC,02,58,FE,AE,FF,33,00,
-29367,00000418,false,Rx,0,8,CA,02,53,FE,5C,FF,2F,00,
-29362,00000418,false,Rx,0,8,D1,02,64,FE,AC,FF,28,00,
-29355,00000418,false,Rx,0,8,DE,02,4D,FE,58,FF,1F,00,
-29349,00000418,false,Rx,0,8,C1,02,68,FE,81,FF,18,00,
-29337,00000418,false,Rx,0,8,DF,02,4B,FE,90,FF,18,00,
-29329,00000418,false,Rx,0,8,C7,02,6C,FE,67,FF,1C,00,
-29325,00000418,false,Rx,0,8,DA,02,4B,FE,A2,FF,21,00,
-29568,00000418,false,Rx,0,8,CA,02,5B,FE,69,FF,25,00,
-29563,00000418,false,Rx,0,8,D4,02,65,FE,A6,FF,27,00,
-29557,00000418,false,Rx,0,8,D8,02,48,FE,5B,FF,27,00,
-29553,00000418,false,Rx,0,8,CC,02,65,FE,8B,FF,23,00,
-29546,00000418,false,Rx,0,8,D9,02,59,FE,94,FF,20,00,
-29542,00000418,false,Rx,0,8,CC,02,63,FE,67,FF,22,00,
-29534,00000418,false,Rx,0,8,D7,02,51,FE,AD,FF,28,00,
-29528,00000611,false,Rx,0,1,01,00,00,00,00,00,00,00,
-29527,00000418,false,Rx,0,8,D6,02,66,FE,66,FF,2C,00,
-29520,00000418,false,Rx,0,8,CB,02,5E,FE,AD,FF,2A,00,
-29509,00000418,false,Rx,0,8,E2,02,53,FE,5F,FF,25,00,
-29505,00000418,false,Rx,0,8,C6,02,6C,FE,A6,FF,24,00,
-29493,00000418,false,Rx,0,8,E5,02,4D,FE,86,FF,29,00,
-29489,00000418,false,Rx,0,8,C3,02,66,FE,77,FF,30,00,
-29483,00000418,false,Rx,0,8,E8,02,54,FE,B4,FF,30,00,
-29477,00000418,false,Rx,0,8,C6,02,66,FE,71,FF,29,00,
-29464,00000418,false,Rx,0,8,E6,02,50,FE,9F,FF,22,00,
-29460,00000418,false,Rx,0,8,C2,02,6C,FE,77,FF,22,00,
-29454,00000418,false,Rx,0,8,ED,02,48,FE,89,FF,29,00,
-29449,00000418,false,Rx,0,8,C1,02,6B,FE,A7,FF,30,00,
-29444,00000418,false,Rx,0,8,E3,02,56,FE,5A,FF,2F,00,
-29178,00000418,false,Rx,0,8,D6,02,60,FE,B0,FF,29,00,
-29174,00000418,false,Rx,0,8,CF,02,66,FE,63,FF,21,00,
-29168,00000418,false,Rx,0,8,EE,02,51,FE,A5,FF,1D,00,
-29157,00000418,false,Rx,0,8,C1,02,6E,FE,87,FF,1F,00,
-29152,00000418,false,Rx,0,8,DF,02,54,FE,5C,FF,24,00,
-29142,00000418,false,Rx,0,8,DA,02,5B,FE,A9,FF,27,00,
-29134,00000418,false,Rx,0,8,C6,02,6B,FE,6D,FF,27,00,
-29130,00000418,false,Rx,0,8,EC,02,46,FE,91,FF,22,00,
-29124,00000418,false,Rx,0,8,D6,02,62,FE,BE,FF,1B,00,
-29118,00000418,false,Rx,0,8,CD,02,6D,FE,6D,FF,18,00,
-29107,00000418,false,Rx,0,8,E4,02,4E,FE,95,FF,1C,00,
-29102,00000418,false,Rx,0,8,D0,02,64,FE,A7,FF,24,00,
-29096,00000418,false,Rx,0,8,CE,02,6C,FE,63,FF,2C,00,
-29088,00000418,false,Rx,0,8,E7,02,4C,FE,9D,FF,2E,00,
-29083,00000418,false,Rx,0,8,D8,02,61,FE,B4,FF,29,00,
-29073,00000418,false,Rx,0,8,D1,02,70,FE,75,FF,21,00,
-29065,00000418,false,Rx,0,8,E5,02,51,FE,90,FF,1E,00,
-29060,00000418,false,Rx,0,8,DD,02,51,FE,AD,FF,22,00,
-29305,00000418,false,Rx,0,8,CD,02,6F,FE,7B,FF,27,00,
-29301,00000418,false,Rx,0,8,D8,02,64,FE,6E,FF,27,00,
-29297,00000418,false,Rx,0,8,E1,02,4B,FE,AA,FF,21,00,
-29282,00000610,false,Rx,0,2,02,0F,00,00,00,00,00,00,
-29282,00000418,false,Rx,0,8,D7,02,59,FE,AC,FF,1E,00,
-29276,00000418,false,Rx,0,8,CB,02,69,FE,89,FF,22,00,
-29261,00000418,false,Rx,0,8,D9,02,69,FE,6C,FF,2B,00,
-29256,00000418,false,Rx,0,8,E9,02,67,FE,7C,FF,2F,00,
-29256,00000418,false,Rx,0,8,D9,02,53,FE,97,FF,2D,00,
-29252,00000418,false,Rx,0,8,D5,02,58,FE,AC,FF,29,00,
-29243,00000418,false,Rx,0,8,C9,02,6D,FE,99,FF,26,00,
-29240,00000418,false,Rx,0,8,D0,02,66,FE,72,FF,26,00,
-29233,00000418,false,Rx,0,8,E2,02,63,FE,69,FF,26,00,
-29225,00000418,false,Rx,0,8,EB,02,5F,FE,74,FF,25,00,
-29217,00000418,false,Rx,0,8,EE,02,50,FE,86,FF,26,00,
-29211,00000418,false,Rx,0,8,E7,02,48,FE,A0,FF,2A,00,
-29204,00000418,false,Rx,0,8,E0,02,5A,FE,A6,FF,2B,00,
-29198,00000418,false,Rx,0,8,D5,02,55,FE,B4,FF,27,00,
-29186,00000418,false,Rx,0,8,CE,02,5F,FE,B4,FF,21,00,
-28922,00000418,false,Rx,0,8,B6,02,6B,FE,9B,FF,20,00,
-28907,00000418,false,Rx,0,8,B4,02,61,FE,9D,FF,25,00,
-28900,00000418,false,Rx,0,8,B5,02,69,FE,94,FF,2A,00,
-28900,00000418,false,Rx,0,8,C3,02,78,FE,78,FF,28,00,
-28896,00000418,false,Rx,0,8,C5,02,7D,FE,7D,FF,22,00,
-28891,00000418,false,Rx,0,8,C6,02,70,FE,7F,FF,1D,00,
-28883,00000418,false,Rx,0,8,CC,02,70,FE,7B,FF,1D,00,
-28876,00000418,false,Rx,0,8,CB,02,68,FE,7F,FF,21,00,
-28872,00000418,false,Rx,0,8,CC,02,69,FE,82,FF,24,00,
-28866,00000418,false,Rx,0,8,CE,02,71,FE,7B,FF,25,00,
-28858,00000418,false,Rx,0,8,CC,02,6A,FE,83,FF,22,00,
-28852,00000418,false,Rx,0,8,CB,02,6A,FE,7F,FF,1E,00,
-28844,00000418,false,Rx,0,8,CD,02,6E,FE,80,FF,1B,00,
-28836,00000418,false,Rx,0,8,CD,02,6A,FE,80,FF,1A,00,
-28828,00000418,false,Rx,0,8,CD,02,69,FE,81,FF,1B,00,
-28819,00000418,false,Rx,0,8,C9,02,6F,FE,8D,FF,1D,00,
-28813,00000418,false,Rx,0,8,CF,02,4B,FE,A5,FF,1F,00,
-29052,00000418,false,Rx,0,8,E0,02,49,FE,C5,FF,20,00,
-29052,00000418,false,Rx,0,8,E1,02,54,FE,B8,FF,1F,00,
-29048,00000418,false,Rx,0,8,E0,02,4C,FE,BA,FF,1E,00,
-29041,00000418,false,Rx,0,8,E0,02,4D,FE,B3,FF,1E,00,
-29031,00000418,false,Rx,0,8,E3,02,50,FE,C1,FF,21,00,
-29027,00000611,false,Rx,0,1,01,00,00,00,00,00,00,00,
-29026,00000418,false,Rx,0,8,E0,02,4B,FE,B8,FF,27,00,
-29022,00000418,false,Rx,0,8,E0,02,4D,FE,B7,FF,2C,00,
-29016,00000418,false,Rx,0,8,E0,02,4E,FE,BA,FF,2E,00,
-29006,00000418,false,Rx,0,8,E2,02,4B,FE,BE,FF,2C,00,
-29001,00000418,false,Rx,0,8,E0,02,4A,FE,B8,FF,2A,00,
-28994,00000418,false,Rx,0,8,E0,02,4D,FE,BD,FF,29,00,
-28988,00000418,false,Rx,0,8,DF,02,4A,FE,BC,FF,29,00,
-28976,00000418,false,Rx,0,8,E2,02,4A,FE,BD,FF,27,00,
-28968,00000418,false,Rx,0,8,E2,02,4C,FE,C1,FF,21,00,
-28953,00000418,false,Rx,0,8,DF,02,4C,FE,B7,FF,1B,00,
-28948,00000418,false,Rx,0,8,E1,02,49,FE,BA,FF,17,00,
-28948,00000418,false,Rx,0,8,E1,02,4F,FE,B8,FF,15,00,
-28939,00000418,false,Rx,0,8,DE,02,4A,FE,B6,FF,16,00,
-28935,00000418,false,Rx,0,8,E4,02,4D,FE,C4,FF,18,00,
-28930,00000418,false,Rx,0,8,E2,02,4B,FE,BA,FF,18,00,
-28669,00000418,false,Rx,0,8,DF,02,4E,FE,B9,FF,15,00,
-28662,00000418,false,Rx,0,8,E2,02,49,FE,BD,FF,11,00,
-28654,00000418,false,Rx,0,8,E5,02,4C,FE,BE,FF,12,00,
-28647,00000418,false,Rx,0,8,D5,02,4B,FE,B9,FF,1B,00,
-28641,00000418,false,Rx,0,8,D3,02,52,FE,B5,FF,2A,00,
-28632,00000418,false,Rx,0,8,C7,02,68,FE,C5,FF,36,00,
-28623,00000418,false,Rx,0,8,A6,02,72,FE,98,FF,3A,00,
-28616,00000418,false,Rx,0,8,A4,02,70,FE,93,FF,38,00,
-28610,00000418,false,Rx,0,8,AD,02,77,FE,8C,FF,34,00,
-28593,00000418,false,Rx,0,8,BF,02,78,FE,7C,FF,34,00,
-28588,00000418,false,Rx,0,8,C2,02,6F,FE,74,FF,36,00,
-28588,00000418,false,Rx,0,8,CC,02,77,FE,70,FF,36,00,
-28583,00000418,false,Rx,0,8,CB,02,79,FE,67,FF,35,00,
-28578,00000418,false,Rx,0,8,DA,02,6F,FE,5D,FF,34,00,
-28572,00000418,false,Rx,0,8,D9,02,6D,FE,40,FF,34,00,
-28564,00000418,false,Rx,0,8,E7,02,5F,FE,5D,FF,35,00,
-28558,00000418,false,Rx,0,8,FD,02,57,FE,80,FF,37,00,
-28548,00000418,false,Rx,0,8,FE,02,54,FE,86,FF,37,00,
-28800,00000418,false,Rx,0,8,E7,02,56,FE,A9,FF,36,00,
-28792,00000418,false,Rx,0,8,DA,02,52,FE,99,FF,33,00,
-28786,00000610,false,Rx,0,2,02,0F,00,00,00,00,00,00,
-28777,00000418,false,Rx,0,8,DC,02,58,FE,C6,FF,30,00,
-28770,00000418,false,Rx,0,8,BD,02,70,FE,8B,FF,30,00,
-28764,00000418,false,Rx,0,8,CE,02,70,FE,77,FF,30,00,
-28754,00000418,false,Rx,0,8,D7,02,68,FE,70,FF,32,00,
-28749,00000418,false,Rx,0,8,E5,02,62,FE,6D,FF,33,00,
-28749,00000418,false,Rx,0,8,E5,02,4B,FE,96,FF,33,00,
-28744,00000418,false,Rx,0,8,DD,02,56,FE,A4,FF,32,00,
-28737,00000418,false,Rx,0,8,D4,02,60,FE,B4,FF,30,00,
-28729,00000418,false,Rx,0,8,BE,02,63,FE,93,FF,2E,00,
-28724,00000418,false,Rx,0,8,CB,02,70,FE,79,FF,2F,00,
-28713,00000418,false,Rx,0,8,D2,02,6F,FE,6D,FF,34,00,
-28704,00000418,false,Rx,0,8,D7,02,6B,FE,62,FF,39,00,
-28697,00000418,false,Rx,0,8,EA,02,5C,FE,6E,FF,3A,00,
-28405,00000418,false,Rx,0,8,EA,02,5A,FE,8F,FF,36,00,
-28395,00000418,false,Rx,0,8,DF,02,55,FE,A0,FF,2F,00,
-28395,00000418,false,Rx,0,8,D7,02,56,FE,AB,FF,2A,00,
-28395,00000418,false,Rx,0,8,CA,02,7A,FE,A2,FF,2D,00,
-28395,00000418,false,Rx,0,8,C7,02,6B,FE,80,FF,37,00,
-28395,00000418,false,Rx,0,8,D3,02,6C,FE,73,FF,42,00,
-28391,00000418,false,Rx,0,8,DD,02,70,FE,63,FF,46,00,
-28380,00000418,false,Rx,0,8,EB,02,57,FE,78,FF,40,00,
-28371,00000418,false,Rx,0,8,E6,02,4F,FE,9D,FF,32,00,
-28370,00000418,false,Rx,0,8,DB,02,5D,FE,A7,FF,24,00,
-28364,00000418,false,Rx,0,8,CE,02,5C,FE,A9,FF,1E,00,
-28360,00000418,false,Rx,0,8,C7,02,6F,FE,88,FF,21,00,
-28352,00000418,false,Rx,0,8,D1,02,71,FE,6E,FF,27,00,
-28346,00000418,false,Rx,0,8,D8,02,6A,FE,60,FF,2A,00,
-28340,00000418,false,Rx,0,8,ED,02,5B,FE,7B,FF,27,00,
-28331,00000418,false,Rx,0,8,E1,02,5C,FE,9A,FF,23,00,
-28325,00000418,false,Rx,0,8,D6,02,5E,FE,A7,FF,21,00,
-28316,00000418,false,Rx,0,8,C3,02,6D,FE,8F,FF,20,00,
-28307,00000418,false,Rx,0,8,CF,02,76,FE,71,FF,1F,00,
-28302,00000418,false,Rx,0,8,DD,02,6A,FE,56,FF,1D,00,
-28289,00000418,false,Rx,0,8,EF,02,5B,FE,85,FF,1E,00,
-28541,00000418,false,Rx,0,8,E3,02,59,FE,9F,FF,25,00,
-28534,00000418,false,Rx,0,8,D1,02,5F,FE,A8,FF,2C,00,
-28528,00000611,false,Rx,0,1,01,00,00,00,00,00,00,00,
-28528,00000418,false,Rx,0,8,C3,02,74,FE,7E,FF,2D,00,
-28524,00000418,false,Rx,0,8,D2,02,74,FE,66,FF,26,00,
-28520,00000418,false,Rx,0,8,E5,02,62,FE,63,FF,1C,00,
-28514,00000418,false,Rx,0,8,E6,02,5B,FE,85,FF,19,00,
-28500,00000418,false,Rx,0,8,D7,02,5B,FE,A6,FF,1C,00,
-28492,00000418,false,Rx,0,8,C3,02,73,FE,81,FF,22,00,
-28488,00000418,false,Rx,0,8,CB,02,76,FE,67,FF,25,00,
-28484,00000418,false,Rx,0,8,DF,02,6C,FE,5D,FF,25,00,
-28477,00000418,false,Rx,0,8,EF,02,61,FE,78,FF,26,00,
-28465,00000418,false,Rx,0,8,E2,02,5C,FE,A0,FF,25,00,
-28461,00000418,false,Rx,0,8,D3,02,60,FE,A5,FF,21,00,
-28456,00000418,false,Rx,0,8,C4,02,77,FE,79,FF,1A,00,
-28443,00000418,false,Rx,0,8,CE,02,73,FE,66,FF,19,00,
-28433,00000418,false,Rx,0,8,DE,02,6D,FE,59,FF,1F,00,
-28427,00000418,false,Rx,0,8,E4,02,5E,FE,88,FF,2A,00,
-28427,00000418,false,Rx,0,8,DA,02,5B,FE,93,FF,2C,00,
-28422,00000418,false,Rx,0,8,D1,02,69,FE,99,FF,23,00,
-28157,00000418,false,Rx,0,8,D1,02,7B,FE,76,FF,15,00,
-28152,00000418,false,Rx,0,8,D5,02,78,FE,5D,FF,12,00,
-28137,00000418,false,Rx,0,8,E6,02,67,FE,66,FF,1F,00,
-28134,00000418,false,Rx,0,8,E6,02,62,FE,86,FF,2E,00,
-28121,00000418,false,Rx,0,8,DD,02,5D,FE,92,FF,31,00,
-28112,00000418,false,Rx,0,8,CA,02,72,FE,8A,FF,24,00,
-28106,00000418,false,Rx,0,8,CA,02,7F,FE,76,FF,17,00,
-28106,00000418,false,Rx,0,8,CC,02,75,FE,4F,FF,19,00,
-28098,00000418,false,Rx,0,8,EE,02,61,FE,71,FF,26,00,
-28079,00000418,false,Rx,0,8,E9,02,67,FE,8A,FF,2F,00,
-28079,00000418,false,Rx,0,8,D7,02,68,FE,A5,FF,2A,00,
-28073,00000418,false,Rx,0,8,C3,02,7A,FE,6D,FF,1C,00,
-28073,00000418,false,Rx,0,8,CA,02,87,FE,57,FF,16,00,
-28065,00000418,false,Rx,0,8,DE,02,71,FE,4F,FF,21,00,
-28060,00000418,false,Rx,0,8,EF,02,61,FE,6C,FF,30,00,
-28051,00000418,false,Rx,0,8,DF,02,6B,FE,90,FF,33,00,
-28045,00000418,false,Rx,0,8,D6,02,65,FE,98,FF,26,00,
-28034,00000418,false,Rx,0,8,C9,02,77,FE,73,FF,18,00,
-28285,00000418,false,Rx,0,8,CF,02,83,FE,65,FF,19,00,
-28278,00000610,false,Rx,0,2,02,0F,00,00,00,00,00,00,
-28274,00000418,false,Rx,0,8,D1,02,78,FE,5B,FF,28,00,
-28273,00000418,false,Rx,0,8,E6,02,64,FE,64,FF,34,00,
-28265,00000418,false,Rx,0,8,E5,02,68,FE,74,FF,2C,00,
-28260,00000418,false,Rx,0,8,D6,02,6B,FE,99,FF,17,00,
-28252,00000418,false,Rx,0,8,BD,02,80,FE,70,FF,09,00,
-28239,00000418,false,Rx,0,8,CE,02,84,FE,56,FF,12,00,
-28232,00000418,false,Rx,0,8,DC,02,72,FE,4A,FF,29,00,
-28232,00000418,false,Rx,0,8,E9,02,67,FE,6A,FF,35,00,
-28224,00000418,false,Rx,0,8,DC,02,6B,FE,7D,FF,2A,00,
-28218,00000418,false,Rx,0,8,DB,02,63,FE,83,FF,13,00,
-28211,00000418,false,Rx,0,8,C8,02,77,FE,7D,FF,0A,00,
-28203,00000418,false,Rx,0,8,C6,02,8B,FE,64,FF,19,00,
-28190,00000418,false,Rx,0,8,CC,02,81,FE,48,FF,30,00,
-28184,00000418,false,Rx,0,8,E3,02,6E,FE,47,FF,37,00,
-28163,00000418,false,Rx,0,8,E5,02,6E,FE,6E,FF,28,00,
-27902,00000418,false,Rx,0,8,D4,02,6B,FE,76,FF,18,00,
-27902,00000418,false,Rx,0,8,D6,02,6A,FE,7E,FF,1B,00,
-27902,00000418,false,Rx,0,8,C9,02,83,FE,7A,FF,31,00,
-27897,00000418,false,Rx,0,8,C4,02,88,FE,5D,FF,43,00,
-27881,00000418,false,Rx,0,8,CB,02,88,FE,49,FF,3F,00,
-27876,00000418,false,Rx,0,8,E0,02,7F,FE,45,FF,27,00,
-27876,00000418,false,Rx,0,8,E5,02,6F,FE,4D,FF,11,00,
-27867,00000418,false,Rx,0,8,DE,02,68,FE,68,FF,11,00,
-27855,00000418,false,Rx,0,8,E1,02,69,FE,6C,FF,24,00,
-27839,00000418,false,Rx,0,8,D9,02,68,FE,84,FF,36,00,
-27838,00000418,false,Rx,0,8,C9,02,79,FE,8E,FF,37,00,
-27832,00000418,false,Rx,0,8,B7,02,7E,FE,65,FF,27,00,
-27831,00000418,false,Rx,0,8,C9,02,88,FE,4B,FF,18,00,
-27823,00000418,false,Rx,0,8,C6,02,87,FE,56,FF,1A,00,
-27815,00000418,false,Rx,0,8,C8,02,8A,FE,26,FF,2D,00,
-27805,00000418,false,Rx,0,8,E4,02,6B,FE,36,FF,40,00,
-27805,00000418,false,Rx,0,8,EB,02,6D,FE,63,FF,3F,00,
-27799,00000418,false,Rx,0,8,DB,02,75,FE,61,FF,29,00,
-27793,00000418,false,Rx,0,8,D6,02,6D,FE,6C,FF,10,00,
-28032,00000418,false,Rx,0,8,D6,02,6C,FE,89,FF,0A,00,
-28026,00000418,false,Rx,0,8,BD,02,84,FE,7E,FF,1E,00,
-28025,00000611,false,Rx,0,1,01,00,00,00,00,00,00,00,
-28025,00000418,false,Rx,0,8,B3,02,87,FE,56,FF,3B,00,
-28013,00000418,false,Rx,0,8,C9,02,96,FE,40,FF,49,00,
-28008,00000418,false,Rx,0,8,CA,02,88,FE,4D,FF,3E,00,
-27998,00000418,false,Rx,0,8,D0,02,8C,FE,30,FF,24,00,
-27993,00000418,false,Rx,0,8,D6,02,7E,FE,28,FF,11,00,
-27988,00000418,false,Rx,0,8,F0,02,74,FE,53,FF,11,00,
-27982,00000418,false,Rx,0,8,ED,02,77,FE,4D,FF,23,00,
-27975,00000418,false,Rx,0,8,E1,02,64,FE,66,FF,3C,00,
-27970,00000418,false,Rx,0,8,E8,02,65,FE,70,FF,4C,00,
-27958,00000418,false,Rx,0,8,D5,02,73,FE,81,FF,4B,00,
-27950,00000418,false,Rx,0,8,D2,02,68,FE,86,FF,3A,00,
-27943,00000418,false,Rx,0,8,DA,02,6C,FE,8B,FF,23,00,
-27943,00000418,false,Rx,0,8,B5,02,83,FE,7A,FF,12,00,
-27933,00000418,false,Rx,0,8,AB,02,7F,FE,6B,FF,10,00,
-27926,00000418,false,Rx,0,8,B9,02,83,FE,59,FF,1C,00,
-27919,00000418,false,Rx,0,8,C3,02,96,FE,4B,FF,2F,00,
-27911,00000418,false,Rx,0,8,BC,02,92,FE,49,FF,41,00,
-27648,00000418,false,Rx,0,8,CD,02,8B,FE,38,FF,4F,00,
-27642,00000418,false,Rx,0,8,CB,02,96,FE,29,FF,54,00,
-27630,00000418,false,Rx,0,8,C0,02,91,FE,28,FF,4C,00,
-27613,00000418,false,Rx,0,8,E3,02,7D,FE,37,FF,37,00,
-27613,00000418,false,Rx,0,8,F4,02,78,FE,42,FF,1F,00,
-27609,00000418,false,Rx,0,8,E3,02,6C,FE,59,FF,13,00,
-27609,00000418,false,Rx,0,8,D3,02,72,FE,61,FF,19,00,
-27600,00000418,false,Rx,0,8,D5,02,78,FE,6F,FF,2B,00,
-27588,00000418,false,Rx,0,8,D4,02,6D,FE,86,FF,3E,00,
-27570,00000418,false,Rx,0,8,BE,02,84,FE,7B,FF,4A,00,
-27570,00000418,false,Rx,0,8,A8,02,9B,FE,50,FF,51,00,
-27564,00000418,false,Rx,0,8,BC,02,92,FE,3F,FF,54,00,
-27564,00000418,false,Rx,0,8,CC,02,8C,FE,3F,FF,50,00,
-27560,00000418,false,Rx,0,8,CF,02,96,FE,20,FF,44,00,
-27556,00000418,false,Rx,0,8,DC,02,7E,FE,44,FF,33,00,
-27542,00000418,false,Rx,0,8,EC,02,79,FE,4A,FF,22,00,
-27532,00000418,false,Rx,0,8,E5,02,70,FE,66,FF,15,00,
-27527,00000418,false,Rx,0,8,D3,02,72,FE,72,FF,0D,00,
-27527,00000418,false,Rx,0,8,C6,02,80,FE,77,FF,0E,00,
-27776,00000610,false,Rx,0,2,02,0F,00,00,00,00,00,00,
-27771,00000418,false,Rx,0,8,B1,02,91,FE,55,FF,18,00,
-27765,00000418,false,Rx,0,8,BF,02,92,FE,38,FF,28,00,
-27750,00000418,false,Rx,0,8,C7,02,90,FE,40,FF,36,00,
-27745,00000418,false,Rx,0,8,C5,02,96,FE,2F,FF,3E,00,
-27745,00000418,false,Rx,0,8,D7,02,80,FE,31,FF,43,00,
-27740,00000418,false,Rx,0,8,D9,02,77,FE,4E,FF,4A,00,
-27731,00000418,false,Rx,0,8,DF,02,7B,FE,65,FF,54,00,
-27721,00000418,false,Rx,0,8,CD,02,77,FE,68,FF,5C,00,
-27717,00000418,false,Rx,0,8,BB,02,8D,FE,68,FF,5C,00,
-27709,00000418,false,Rx,0,8,B3,02,9D,FE,3D,FF,52,00,
-27702,00000418,false,Rx,0,8,BE,02,97,FE,33,FF,3F,00,
-27696,00000418,false,Rx,0,8,CC,02,91,FE,1D,FF,2A,00,
-27691,00000418,false,Rx,0,8,D4,02,89,FE,28,FF,18,00,
-27681,00000418,false,Rx,0,8,DF,02,81,FE,38,FF,11,00,
-27670,00000418,false,Rx,0,8,D5,02,76,FE,55,FF,1A,00,
-27662,00000418,false,Rx,0,8,CB,02,85,FE,60,FF,2D,00,
-27662,00000418,false,Rx,0,8,C3,02,82,FE,64,FF,41,00,
-27651,00000418,false,Rx,0,8,BD,02,90,FE,59,FF,4E,00,
-27391,00000418,false,Rx,0,8,BA,02,9F,FE,39,FF,54,00,
-27380,00000418,false,Rx,0,8,C1,02,95,FE,2D,FF,51,00,
-27367,00000418,false,Rx,0,8,C6,02,99,FE,22,FF,43,00,
-27367,00000418,false,Rx,0,8,D6,02,85,FE,2B,FF,2D,00,
-27362,00000418,false,Rx,0,8,DB,02,7F,FE,3C,FF,19,00,
-27354,00000418,false,Rx,0,8,D3,02,78,FE,4A,FF,13,00,
-27349,00000418,false,Rx,0,8,CD,02,7C,FE,5B,FF,20,00,
-27344,00000418,false,Rx,0,8,C1,02,81,FE,6A,FF,37,00,
-27335,00000418,false,Rx,0,8,B1,02,92,FE,58,FF,4B,00,
-27331,00000418,false,Rx,0,8,AF,02,9B,FE,47,FF,54,00,
-27326,00000418,false,Rx,0,8,B4,02,9B,FE,29,FF,51,00,
-27319,00000418,false,Rx,0,8,BF,02,99,FE,20,FF,42,00,
-27309,00000418,false,Rx,0,8,C9,02,9A,FE,19,FF,2C,00,
-27303,00000418,false,Rx,0,8,D8,02,87,FE,21,FF,19,00,
-27293,00000418,false,Rx,0,8,E1,02,79,FE,35,FF,18,00,
-27288,00000418,false,Rx,0,8,DD,02,79,FE,55,FF,2B,00,
-27284,00000418,false,Rx,0,8,D1,02,7C,FE,5D,FF,47,00,
-27270,00000611,false,Rx,0,1,01,00,00,00,00,00,00,00,
-27520,00000418,false,Rx,0,8,C5,02,7A,FE,6A,FF,5C,00,
-27520,00000418,false,Rx,0,8,B1,02,8F,FE,60,FF,5F,00,
-27514,00000418,false,Rx,0,8,B0,02,9D,FE,45,FF,51,00,
-27508,00000418,false,Rx,0,8,B3,02,9F,FE,33,FF,3A,00,
-27501,00000418,false,Rx,0,8,BD,02,9B,FE,25,FF,25,00,
-27494,00000418,false,Rx,0,8,C9,02,9B,FE,16,FF,1B,00,
-27488,00000418,false,Rx,0,8,DD,02,80,FE,27,FF,20,00,
-27481,00000418,false,Rx,0,8,DA,02,7A,FE,3F,FF,32,00,
-27477,00000418,false,Rx,0,8,D5,02,84,FE,55,FF,48,00,
-27470,00000418,false,Rx,0,8,C7,02,77,FE,69,FF,57,00,
-27462,00000418,false,Rx,0,8,BA,02,8A,FE,61,FF,58,00,
-27453,00000418,false,Rx,0,8,AA,02,9F,FE,47,FF,4C,00,
-27443,00000418,false,Rx,0,8,B2,02,9A,FE,33,FF,37,00,
-27439,00000418,false,Rx,0,8,BD,02,9A,FE,1E,FF,23,00,
-27433,00000418,false,Rx,0,8,CA,02,9A,FE,0C,FF,1A,00,
-27422,00000418,false,Rx,0,8,DB,02,80,FE,2B,FF,20,00,
-27418,00000418,false,Rx,0,8,D8,02,77,FE,3B,FF,31,00,
-27412,00000418,false,Rx,0,8,D2,02,83,FE,56,FF,46,00,
-27403,00000418,false,Rx,0,8,C5,02,7D,FE,5F,FF,56,00,
-27397,00000418,false,Rx,0,8,B0,02,90,FE,57,FF,5F,00,
-27136,00000418,false,Rx,0,8,B5,02,A3,FE,3B,FF,5E,00,
-27130,00000418,false,Rx,0,8,BB,02,96,FE,27,FF,51,00,
-27122,00000418,false,Rx,0,8,C5,02,95,FE,18,FF,37,00,
-27115,00000418,false,Rx,0,8,DA,02,8E,FE,2B,FF,1D,00,
-27108,00000418,false,Rx,0,8,CD,02,7B,FE,45,FF,10,00,
-27099,00000418,false,Rx,0,8,C5,02,7D,FE,54,FF,17,00,
-27088,00000418,false,Rx,0,8,B9,02,92,FE,5F,FF,2B,00,
-27076,00000418,false,Rx,0,8,AB,02,96,FE,3D,FF,40,00,
-27063,00000418,false,Rx,0,8,B4,02,99,FE,2D,FF,51,00,
-27063,00000418,false,Rx,0,8,C5,02,9E,FE,0F,FF,59,00,
-27057,00000418,false,Rx,0,8,D1,02,84,FE,24,FF,57,00,
-27057,00000418,false,Rx,0,8,DA,02,7C,FE,3F,FF,47,00,
-27052,00000418,false,Rx,0,8,CC,02,82,FE,55,FF,2E,00,
-27037,00000418,false,Rx,0,8,C0,02,7C,FE,5D,FF,19,00,
-27031,00000418,false,Rx,0,8,AD,02,92,FE,52,FF,13,00,
-27025,00000418,false,Rx,0,8,B0,02,9F,FE,2E,FF,21,00,
-27017,00000418,false,Rx,0,8,BD,02,96,FE,0F,FF,39,00,
-27017,00000610,false,Rx,0,2,02,0F,00,00,00,00,00,00,
-27010,00000418,false,Rx,0,8,C1,02,95,FE,09,FF,4F,00,
-27262,00000418,false,Rx,0,8,D7,02,85,FE,2B,FF,5B,00,
-27258,00000418,false,Rx,0,8,CA,02,7B,FE,3F,FF,59,00,
-27251,00000418,false,Rx,0,8,C0,02,80,FE,51,FF,47,00,
-27242,00000418,false,Rx,0,8,B7,02,91,FE,5D,FF,2C,00,
-27236,00000418,false,Rx,0,8,A2,02,9A,FE,33,FF,17,00,
-27231,00000418,false,Rx,0,8,AF,02,9C,FE,1F,FF,14,00,
-27226,00000418,false,Rx,0,8,BF,02,9B,FE,0D,FF,25,00,
-27209,00000418,false,Rx,0,8,C8,02,8B,FE,13,FF,40,00,
-27204,00000418,false,Rx,0,8,D6,02,7A,FE,32,FF,52,00,
-27193,00000418,false,Rx,0,8,CE,02,7A,FE,44,FF,51,00,
-27186,00000418,false,Rx,0,8,BD,02,87,FE,4F,FF,3D,00,
-27186,00000418,false,Rx,0,8,B0,02,88,FE,61,FF,25,00,
-27180,00000418,false,Rx,0,8,9C,02,97,FE,3B,FF,19,00,
-27175,00000418,false,Rx,0,8,A8,02,A0,FE,1F,FF,22,00,
-27169,00000418,false,Rx,0,8,AD,02,99,FE,24,FF,39,00,
-27159,00000418,false,Rx,0,8,B5,02,9A,FE,0E,FF,4F,00,
-27152,00000418,false,Rx,0,8,BB,02,A2,FE,FC,FE,53,00,
-27147,00000418,false,Rx,0,8,D3,02,87,FE,13,FF,42,00,
-27140,00000418,false,Rx,0,8,DD,02,80,FE,27,FF,26,00,
-26877,00000418,false,Rx,0,8,D2,02,81,FE,2E,FF,12,00,
-26858,00000418,false,Rx,0,8,CF,02,7F,FE,32,FF,15,00,
-26854,00000418,false,Rx,0,8,D2,02,7F,FE,2A,FF,2E,00,
-26853,00000418,false,Rx,0,8,D2,02,82,FE,2A,FF,4C,00,
-26848,00000418,false,Rx,0,8,CF,02,7C,FE,28,FF,5D,00,
-26842,00000418,false,Rx,0,8,D1,02,7F,FE,26,FF,54,00,
-26836,00000418,false,Rx,0,8,D3,02,82,FE,34,FF,3A,00,
-26829,00000418,false,Rx,0,8,D0,02,7D,FE,25,FF,20,00,
-26821,00000418,false,Rx,0,8,D1,02,81,FE,25,FF,17,00,
-26812,00000418,false,Rx,0,8,D0,02,86,FE,28,FF,25,00,
-26808,00000418,false,Rx,0,8,D1,02,7D,FE,24,FF,40,00,
-26801,00000418,false,Rx,0,8,D4,02,82,FE,25,FF,57,00,
-26792,00000418,false,Rx,0,8,D5,02,8D,FE,22,FF,5A,00,
-26781,00000418,false,Rx,0,8,CC,02,91,FE,1C,FF,48,00,
-26774,00000418,false,Rx,0,8,BF,02,97,FE,10,FF,2B,00,
-26764,00000611,false,Rx,0,1,01,00,00,00,00,00,00,00,
-26764,00000418,false,Rx,0,8,BC,02,9A,FE,22,FF,18,00,
-27008,00000418,false,Rx,0,8,B8,02,95,FE,22,FF,1A,00,
-27008,00000418,false,Rx,0,8,B9,02,97,FE,1A,FF,2B,00,
-27000,00000418,false,Rx,0,8,B3,02,96,FE,31,FF,3E,00,
-26995,00000418,false,Rx,0,8,BE,02,6D,FE,52,FF,4A,00,
-26987,00000418,false,Rx,0,8,CC,02,6E,FE,56,FF,52,00,
-26976,00000418,false,Rx,0,8,C8,02,79,FE,56,FF,59,00,
-26970,00000418,false,Rx,0,8,CA,02,6D,FE,54,FF,59,00,
-26965,00000418,false,Rx,0,8,CB,02,70,FE,52,FF,4F,00,
-26961,00000418,false,Rx,0,8,CC,02,77,FE,56,FF,3B,00,
-26956,00000418,false,Rx,0,8,C9,02,6E,FE,53,FF,2A,00,
-26951,00000418,false,Rx,0,8,CB,02,70,FE,50,FF,26,00,
-26942,00000418,false,Rx,0,8,CB,02,78,FE,56,FF,2C,00,
-26935,00000418,false,Rx,0,8,C9,02,6D,FE,53,FF,31,00,
-26929,00000418,false,Rx,0,8,CA,02,72,FE,56,FF,2F,00,
-26924,00000418,false,Rx,0,8,CD,02,75,FE,55,FF,2B,00,
-26909,00000418,false,Rx,0,8,C8,02,6D,FE,54,FF,2B,00,
-26905,00000418,false,Rx,0,8,CB,02,6F,FE,58,FF,30,00,
-26893,00000418,false,Rx,0,8,C9,02,7A,FE,5D,FF,33,00,
-26624,00000418,false,Rx,0,8,C4,02,6E,FE,6F,FF,31,00,
-26620,00000418,false,Rx,0,8,A6,02,87,FE,50,FF,2E,00,
-26620,00000418,false,Rx,0,8,A4,02,89,FE,4E,FF,30,00,
-26616,00000418,false,Rx,0,8,9D,02,8B,FE,46,FF,37,00,
-26607,00000418,false,Rx,0,8,9A,02,9C,FE,40,FF,3E,00,
-26604,00000418,false,Rx,0,8,AE,02,9E,FE,25,FF,41,00,
-26597,00000418,false,Rx,0,8,B0,02,9C,FE,23,FF,42,00,
-26590,00000418,false,Rx,0,8,B3,02,A6,FE,1C,FF,41,00,
-26585,00000418,false,Rx,0,8,AA,02,A3,FE,1C,FF,3C,00,
-26576,00000418,false,Rx,0,8,B3,02,9C,FE,01,FF,30,00,
-26569,00000418,false,Rx,0,8,B0,02,A4,FE,EF,FE,1F,00,
-26560,00000418,false,Rx,0,8,B1,02,A7,FE,E4,FE,12,00,
-26550,00000418,false,Rx,0,8,B5,02,97,FE,F3,FE,0D,00,
-26544,00000418,false,Rx,0,8,D8,02,8C,FE,18,FF,10,00,
-26534,00000418,false,Rx,0,8,D7,02,84,FE,2A,FF,13,00,
-26526,00000418,false,Rx,0,8,C0,02,76,FE,49,FF,14,00,
-26520,00000418,false,Rx,0,8,C4,02,7C,FE,3E,FF,11,00,
-26515,00000418,false,Rx,0,8,C1,02,74,FE,64,FF,0F,00,
-26515,00000610,false,Rx,0,2,02,0F,00,00,00,00,00,00,
-26509,00000418,false,Rx,0,8,BC,02,7F,FE,59,FF,0F,00,
-26502,00000418,false,Rx,0,8,A0,02,97,FE,2E,FF,10,00,
-26497,00000418,false,Rx,0,8,AA,02,A2,FE,1C,FF,10,00,
-26748,00000418,false,Rx,0,8,AB,02,A4,FE,19,FF,0E,00,
-26740,00000418,false,Rx,0,8,AE,02,A2,FE,FB,FE,0E,00,
-26730,00000418,false,Rx,0,8,C3,02,90,FE,0E,FF,11,00,
-26725,00000418,false,Rx,0,8,D7,02,7A,FE,2F,FF,18,00,
-26720,00000418,false,Rx,0,8,D1,02,6C,FE,42,FF,21,00,
-26703,00000418,false,Rx,0,8,C9,02,74,FE,5D,FF,29,00,
-26697,00000418,false,Rx,0,8,B3,02,8B,FE,64,FF,2F,00,
-26697,00000418,false,Rx,0,8,9D,02,9A,FE,29,FF,35,00,
-26691,00000418,false,Rx,0,8,A6,02,A0,FE,19,FF,3B,00,
-26683,00000418,false,Rx,0,8,AB,02,9F,FE,0F,FF,40,00,
-26679,00000418,false,Rx,0,8,CB,02,83,FE,13,FF,41,00,
-26673,00000418,false,Rx,0,8,C9,02,7A,FE,36,FF,42,00,
-26658,00000418,false,Rx,0,8,C5,02,7F,FE,46,FF,49,00,
-26652,00000418,false,Rx,0,8,BB,02,88,FE,46,FF,5A,00,
-26645,00000418,false,Rx,0,8,A5,02,98,FE,2A,FF,6D,00,
-26628,00000418,false,Rx,0,8,A9,02,A4,FE,1B,FF,71,00,
-26366,00000418,false,Rx,0,8,B1,02,9D,FE,07,FF,5F,00,
-26365,00000418,false,Rx,0,8,BD,02,8D,FE,15,FF,3E,00,
-26360,00000418,false,Rx,0,8,C9,02,81,FE,2E,FF,21,00,
-26356,00000418,false,Rx,0,8,C4,02,78,FE,48,FF,13,00,
-26331,00000418,false,Rx,0,8,C0,02,78,FE,4D,FF,12,00,
-26325,00000418,false,Rx,0,8,B1,02,90,FE,49,FF,18,00,
-26325,00000418,false,Rx,0,8,AA,02,9A,FE,25,FF,1F,00,
-26325,00000418,false,Rx,0,8,AF,02,99,FE,1A,FF,2E,00,
-26319,00000418,false,Rx,0,8,AE,02,A5,FE,06,FF,41,00,
-26314,00000418,false,Rx,0,8,BF,02,87,FE,14,FF,52,00,
-26308,00000418,false,Rx,0,8,C4,02,82,FE,30,FF,52,00,
-26300,00000418,false,Rx,0,8,C2,02,89,FE,3D,FF,41,00,
-26296,00000418,false,Rx,0,8,BD,02,7C,FE,4D,FF,2A,00,
-26289,00000418,false,Rx,0,8,A8,02,95,FE,2E,FF,19,00,
-26280,00000418,false,Rx,0,8,AE,02,A3,FE,1C,FF,19,00,
-26270,00000611,false,Rx,0,1,01,00,00,00,00,00,00,00,
-26265,00000418,false,Rx,0,8,B1,02,9A,FE,03,FF,26,00,
-26265,00000418,false,Rx,0,8,BA,02,91,FE,0A,FF,3B,00,
-26260,00000418,false,Rx,0,8,C1,02,82,FE,37,FF,4A,00,
-26254,00000418,false,Rx,0,8,B8,02,7F,FE,50,FF,4B,00,
-26494,00000418,false,Rx,0,8,B3,02,89,FE,4E,FF,37,00,
-26489,00000418,false,Rx,0,8,AD,02,A2,FE,18,FF,1A,00,
-26486,00000418,false,Rx,0,8,AE,02,9C,FE,0E,FF,08,00,
-26472,00000418,false,Rx,0,8,C2,02,8B,FE,08,FF,11,00,
-26472,00000418,false,Rx,0,8,BC,02,8A,FE,3D,FF,2D,00,
-26467,00000418,false,Rx,0,8,B6,02,80,FE,4B,FF,46,00,
-26460,00000418,false,Rx,0,8,A7,02,95,FE,2B,FF,4A,00,
-26444,00000418,false,Rx,0,8,B3,02,9D,FE,0F,FF,36,00,
-26440,00000418,false,Rx,0,8,BE,02,8C,FE,02,FF,1C,00,
-26434,00000418,false,Rx,0,8,C2,02,80,FE,34,FF,0C,00,
-26429,00000418,false,Rx,0,8,B1,02,8A,FE,4A,FF,0F,00,
-26419,00000418,false,Rx,0,8,9D,02,95,FE,37,FF,1F,00,
-26418,00000418,false,Rx,0,8,AB,02,98,FE,15,FF,33,00,
-26412,00000418,false,Rx,0,8,BD,02,91,FE,00,FF,41,00,
-26398,00000418,false,Rx,0,8,C5,02,82,FE,34,FF,43,00,
-26392,00000418,false,Rx,0,8,B7,02,89,FE,41,FF,34,00,
-26388,00000418,false,Rx,0,8,9E,02,9E,FE,30,FF,1D,00,
-26382,00000418,false,Rx,0,8,AA,02,99,FE,0B,FF,0C,00,
-26376,00000418,false,Rx,0,8,C1,02,8B,FE,04,FF,0F,00,
-26371,00000418,false,Rx,0,8,CA,02,86,FE,35,FF,26,00,
-26105,00000418,false,Rx,0,8,B7,02,8A,FE,47,FF,42,00,
-26098,00000418,false,Rx,0,8,A0,02,A5,FE,16,FF,4C,00,
-26092,00000418,false,Rx,0,8,AB,02,9E,FE,0D,FF,37,00,
-26079,00000418,false,Rx,0,8,C4,02,86,FE,23,FF,16,00,
-26075,00000418,false,Rx,0,8,BF,02,81,FE,3A,FF,09,00,
-26071,00000418,false,Rx,0,8,AC,02,97,FE,39,FF,1D,00,
-26060,00000418,false,Rx,0,8,AA,02,9F,FE,0D,FF,3E,00,
-26055,00000418,false,Rx,0,8,B7,02,8F,FE,06,FF,48,00,
-26049,00000418,false,Rx,0,8,C1,02,7E,FE,3F,FF,30,00,
-26037,00000418,false,Rx,0,8,BC,02,8B,FE,46,FF,12,00,
-26031,00000418,false,Rx,0,8,A9,02,9D,FE,14,FF,12,00,
-26026,00000418,false,Rx,0,8,AB,02,99,FE,04,FF,2D,00,
-26021,00000418,false,Rx,0,8,BD,02,81,FE,2E,FF,40,00,
-26015,00000418,false,Rx,0,8,B8,02,82,FE,44,FF,33,00,
-26010,00000610,false,Rx,0,2,02,0F,00,00,00,00,00,00,
-26004,00000418,false,Rx,0,8,AB,02,98,FE,26,FF,1A,00,
-25998,00000418,false,Rx,0,8,B3,02,9B,FE,08,FF,18,00,
-25993,00000418,false,Rx,0,8,C2,02,85,FE,15,FF,2E,00,
-25989,00000418,false,Rx,0,8,BF,02,7A,FE,43,FF,3D,00,
-26236,00000418,false,Rx,0,8,AE,02,95,FE,45,FF,2F,00,
-26229,00000418,false,Rx,0,8,A8,02,9F,FE,17,FF,18,00,
-26219,00000418,false,Rx,0,8,B3,02,8D,FE,04,FF,18,00,
-26215,00000418,false,Rx,0,8,C0,02,80,FE,36,FF,2F,00,
-26211,00000418,false,Rx,0,8,B9,02,8B,FE,4D,FF,3C,00,
-26189,00000418,false,Rx,0,8,AD,02,A1,FE,19,FF,2F,00,
-26185,00000418,false,Rx,0,8,B4,02,96,FE,07,FF,1D,00,
-26185,00000418,false,Rx,0,8,C8,02,71,FE,37,FF,1F,00,
-26174,00000418,false,Rx,0,8,BC,02,83,FE,49,FF,2F,00,
-26170,00000418,false,Rx,0,8,A0,02,A4,FE,16,FF,33,00,
-26158,00000418,false,Rx,0,8,AD,02,8E,FE,02,FF,24,00,
-26151,00000418,false,Rx,0,8,CB,02,7D,FE,21,FF,18,00,
-26147,00000418,false,Rx,0,8,B4,02,98,FE,47,FF,1F,00,
-26139,00000418,false,Rx,0,8,A2,02,99,FE,10,FF,2D,00,
-26134,00000418,false,Rx,0,8,C5,02,7E,FE,06,FF,2D,00,
-26130,00000418,false,Rx,0,8,C0,02,88,FE,3F,FF,22,00,
-26119,00000418,false,Rx,0,8,99,02,99,FE,2E,FF,1D,00,
-26113,00000418,false,Rx,0,8,AE,02,99,FE,03,FF,24,00,
-25852,00000418,false,Rx,0,8,CA,02,86,FE,32,FF,2B,00,
-25827,00000418,false,Rx,0,8,B0,02,8F,FE,45,FF,26,00,
-25827,00000418,false,Rx,0,8,AA,02,99,FE,0A,FF,1F,00,
-25827,00000418,false,Rx,0,8,C9,02,82,FE,14,FF,20,00,
-25816,00000418,false,Rx,0,8,B6,02,7D,FE,44,FF,26,00,
-25815,00000418,false,Rx,0,8,9D,02,9C,FE,13,FF,28,00,
-25811,00000418,false,Rx,0,8,B7,02,90,FE,FE,FE,24,00,
-25806,00000418,false,Rx,0,8,BD,02,82,FE,46,FF,22,00,
-25800,00000418,false,Rx,0,8,A2,02,A4,FE,2E,FF,25,00,
-25792,00000418,false,Rx,0,8,B5,02,97,FE,FE,FE,28,00,
-25782,00000418,false,Rx,0,8,C8,02,76,FE,32,FF,25,00,
-25775,00000418,false,Rx,0,8,A6,02,98,FE,4A,FF,21,00,
-25769,00000611,false,Rx,0,1,01,00,00,00,00,00,00,00,
-25768,00000418,false,Rx,0,8,AD,02,9D,FE,0D,FF,23,00,
-25757,00000418,false,Rx,0,8,C4,02,7E,FE,2E,FF,27,00,
-25753,00000418,false,Rx,0,8,AE,02,97,FE,4E,FF,28,00,
-25746,00000418,false,Rx,0,8,B2,02,97,FE,06,FF,27,00,
-25742,00000418,false,Rx,0,8,C7,02,78,FE,3B,FF,29,00,
-25730,00000418,false,Rx,0,8,A8,02,99,FE,47,FF,2D,00,
-25979,00000418,false,Rx,0,8,AF,02,98,FE,12,FF,2E,00,
-25973,00000418,false,Rx,0,8,C5,02,7B,FE,2C,FF,2B,00,
-25968,00000418,false,Rx,0,8,AA,02,98,FE,3E,FF,26,00,
-25960,00000418,false,Rx,0,8,AD,02,96,FE,02,FF,25,00,
-25955,00000418,false,Rx,0,8,CA,02,77,FE,2C,FF,27,00,
-25950,00000418,false,Rx,0,8,B0,02,93,FE,45,FF,28,00,
-25942,00000418,false,Rx,0,8,A6,02,9B,FE,13,FF,25,00,
-25937,00000418,false,Rx,0,8,C6,02,78,FE,26,FF,22,00,
-25930,00000418,false,Rx,0,8,B1,02,8F,FE,3D,FF,21,00,
-25923,00000418,false,Rx,0,8,A5,02,9D,FE,07,FF,23,00,
-25912,00000418,false,Rx,0,8,C5,02,79,FE,08,FF,27,00,
-25908,00000418,false,Rx,0,8,B4,02,85,FE,42,FF,2A,00,
-25902,00000418,false,Rx,0,8,9E,02,9A,FE,0E,FF,2C,00,
-25896,00000418,false,Rx,0,8,BC,02,81,FE,05,FF,2C,00,
-25885,00000418,false,Rx,0,8,B9,02,81,FE,42,FF,2A,00,
-25878,00000418,false,Rx,0,8,A2,02,9C,FE,0C,FF,29,00,
-25874,00000418,false,Rx,0,8,C2,02,7E,FE,04,FF,29,00,
-25868,00000418,false,Rx,0,8,B9,02,82,FE,4D,FF,29,00,
-25858,00000418,false,Rx,0,8,A1,02,98,FE,10,FF,26,00,
-25595,00000418,false,Rx,0,8,C4,02,7D,FE,0D,FF,22,00,
-25590,00000418,false,Rx,0,8,B5,02,89,FE,4B,FF,21,00,
-25584,00000418,false,Rx,0,8,AB,02,90,FE,0C,FF,23,00,
-25575,00000418,false,Rx,0,8,CE,02,74,FE,32,FF,26,00,
-25570,00000418,false,Rx,0,8,AF,02,96,FE,54,FF,26,00,
-25560,00000418,false,Rx,0,8,B0,02,8F,FE,09,FF,22,00,
-25549,00000418,false,Rx,0,8,C7,02,82,FE,3B,FF,1E,00,
-25543,00000418,false,Rx,0,8,A5,02,9B,FE,1B,FF,1F,00,
-25521,00000418,false,Rx,0,8,C1,02,7A,FE,02,FF,23,00,
-25518,00000418,false,Rx,0,8,BD,02,85,FE,4A,FF,26,00,
-25517,00000418,false,Rx,0,8,A7,02,93,FE,14,FF,25,00,
-25517,00000418,false,Rx,0,8,CD,02,76,FE,2E,FF,21,00,
-25512,00000418,false,Rx,0,8,B0,02,A2,FE,4B,FF,1E,00,
-25506,00000610,false,Rx,0,2,02,0F,00,00,00,00,00,00,
-25498,00000418,false,Rx,0,8,B9,02,89,FE,FF,FE,1F,00,
-25492,00000418,false,Rx,0,8,CA,02,7A,FE,45,FF,24,00,
-25487,00000418,false,Rx,0,8,A4,02,9F,FE,1D,FF,29,00,
-25482,00000418,false,Rx,0,8,C5,02,77,FE,0E,FF,2B,00,
-25476,00000418,false,Rx,0,8,BB,02,8E,FE,4E,FF,2B,00,
-25723,00000418,false,Rx,0,8,B3,02,96,FE,09,FF,29,00,
-25715,00000418,false,Rx,0,8,CE,02,76,FE,3F,FF,28,00,
-25703,00000418,false,Rx,0,8,A6,02,9B,FE,2C,FF,28,00,
-25703,00000418,false,Rx,0,8,C1,02,80,FE,FF,FE,2A,00,
-25698,00000418,false,Rx,0,8,BC,02,88,FE,4E,FF,2C,00,
-25685,00000418,false,Rx,0,8,B1,02,8F,FE,0B,FF,2C,00,
-25672,00000418,false,Rx,0,8,D2,02,7E,FE,46,FF,29,00,
-25664,00000418,false,Rx,0,8,A3,02,94,FE,34,FF,26,00,
-25664,00000418,false,Rx,0,8,C2,02,7B,FE,00,FF,24,00,
-25654,00000418,false,Rx,0,8,BD,02,98,FE,4D,FF,25,00,
-25648,00000418,false,Rx,0,8,B0,02,8D,FE,06,FF,26,00,
-25641,00000418,false,Rx,0,8,D0,02,76,FE,3B,FF,24,00,
-25637,00000418,false,Rx,0,8,A4,02,9B,FE,2F,FF,22,00,
-25631,00000418,false,Rx,0,8,C9,02,73,FE,09,FF,23,00,
-25622,00000418,false,Rx,0,8,BA,02,8C,FE,53,FF,26,00,
-25615,00000418,false,Rx,0,8,BE,02,8A,FE,08,FF,27,00,
-25612,00000418,false,Rx,0,8,C6,02,74,FE,4D,FF,25,00,
-25605,00000418,false,Rx,0,8,AB,02,94,FE,18,FF,22,00,
-25601,00000418,false,Rx,0,8,D1,02,80,FE,3F,FF,23,00,
-25339,00000418,false,Rx,0,8,A7,02,91,FE,2D,FF,28,00,
-25325,00000418,false,Rx,0,8,D4,02,74,FE,14,FF,2B,00,
-25317,00000418,false,Rx,0,8,B4,02,92,FE,61,FF,2A,00,
-25313,00000418,false,Rx,0,8,BC,02,7A,FE,09,FF,27,00,
-25308,00000418,false,Rx,0,8,C0,02,86,FE,52,FF,26,00,
-25303,00000418,false,Rx,0,8,B8,02,8E,FE,0D,FF,26,00,
-25296,00000418,false,Rx,0,8,CA,02,79,FE,48,FF,25,00,
-25287,00000418,false,Rx,0,8,A9,02,8F,FE,15,FF,25,00,
-25283,00000418,false,Rx,0,8,D2,02,7C,FE,3D,FF,26,00,
-25278,00000611,false,Rx,0,1,01,00,00,00,00,00,00,00,
-25274,00000418,false,Rx,0,8,A8,02,91,FE,31,FF,28,00,
-25264,00000418,false,Rx,0,8,CD,02,7C,FE,02,FF,28,00,
-25256,00000418,false,Rx,0,8,B4,02,8D,FE,55,FF,25,00,
-25246,00000418,false,Rx,0,8,BE,02,83,FE,FF,FE,23,00,
-25241,00000418,false,Rx,0,8,B9,02,83,FE,4D,FF,25,00,
-25236,00000418,false,Rx,0,8,BE,02,91,FE,04,FF,29,00,
-25463,00000418,false,Rx,0,8,BD,02,81,FE,4B,FF,2C,00,
-25457,00000418,false,Rx,0,8,B2,02,91,FE,0A,FF,29,00,
-25457,00000418,false,Rx,0,8,C4,02,83,FE,44,FF,24,00,
-25457,00000418,false,Rx,0,8,AB,02,94,FE,16,FF,23,00,
-25457,00000418,false,Rx,0,8,CC,02,7F,FE,28,FF,27,00,
-25453,00000418,false,Rx,0,8,A9,02,9A,FE,36,FF,2C,00,
-25441,00000418,false,Rx,0,8,CC,02,81,FE,15,FF,2C,00,
-25436,00000418,false,Rx,0,8,AE,02,92,FE,48,FF,26,00,
-25431,00000418,false,Rx,0,8,C8,02,7E,FE,00,FF,1E,00,
-25426,00000418,false,Rx,0,8,B1,02,92,FE,53,FF,1B,00,
-25419,00000418,false,Rx,0,8,C0,02,86,FE,FF,FE,21,00,
-25410,00000418,false,Rx,0,8,B7,02,90,FE,51,FF,2A,00,
-25400,00000418,false,Rx,0,8,C2,02,8C,FE,05,FF,2F,00,
-25393,00000418,false,Rx,0,8,B5,02,83,FE,4C,FF,2D,00,
-25386,00000418,false,Rx,0,8,BF,02,8E,FE,08,FF,28,00,
-25377,00000418,false,Rx,0,8,B9,02,86,FE,51,FF,24,00,
-25367,00000418,false,Rx,0,8,BF,02,8F,FE,00,FF,22,00,
-25361,00000418,false,Rx,0,8,BD,02,7F,FE,50,FF,20,00,
-25361,00000418,false,Rx,0,8,BB,02,9B,FE,0F,FF,1F,00,
-25356,00000418,false,Rx,0,8,BA,02,7D,FE,49,FF,22,00,
-25350,00000418,false,Rx,0,8,BE,02,95,FE,0D,FF,29,00,
-25083,00000418,false,Rx,0,8,BC,02,87,FE,4F,FF,2F,00,
-25072,00000418,false,Rx,0,8,B7,02,99,FE,0B,FF,2F,00,
-25065,00000418,false,Rx,0,8,BD,02,7D,FE,40,FF,2A,00,
-25058,00000418,false,Rx,0,8,B9,02,98,FE,07,FF,25,00,
-25055,00000418,false,Rx,0,8,BF,02,79,FE,4A,FF,24,00,
-25049,00000418,false,Rx,0,8,B6,02,9D,FE,12,FF,24,00,
-25042,00000418,false,Rx,0,8,C2,02,83,FE,3F,FF,21,00,
-25035,00000418,false,Rx,0,8,B2,02,96,FE,0D,FF,1C,00,
-25029,00000418,false,Rx,0,8,C5,02,79,FE,47,FF,1A,00,
-25019,00000418,false,Rx,0,8,AF,02,9E,FE,1C,FF,1B,00,
-25012,00000418,false,Rx,0,8,C3,02,76,FE,38,FF,20,00,
-25007,00000418,false,Rx,0,8,AB,02,9A,FE,16,FF,26,00,
-25002,00000610,false,Rx,0,2,02,0F,00,00,00,00,00,00,
-24995,00000418,false,Rx,0,8,CF,02,7C,FE,3D,FF,2C,00,
-24991,00000418,false,Rx,0,8,AA,02,98,FE,1D,FF,2F,00,
-24985,00000418,false,Rx,0,8,D0,02,80,FE,31,FF,2E,00,
-24980,00000418,false,Rx,0,8,A6,02,A0,FE,1E,FF,2A,00,
-24973,00000418,false,Rx,0,8,D1,02,73,FE,2C,FF,26,00,
-24962,00000418,false,Rx,0,8,A7,02,98,FE,2A,FF,24,00,
-25212,00000418,false,Rx,0,8,CF,02,86,FE,26,FF,27,00,
-25206,00000418,false,Rx,0,8,A6,02,97,FE,30,FF,2A,00,
-25196,00000418,false,Rx,0,8,CE,02,79,FE,11,FF,2B,00,
-25192,00000418,false,Rx,0,8,B3,02,9B,FE,54,FF,29,00,
-25187,00000418,false,Rx,0,8,C5,02,85,FE,07,FF,25,00,
-25180,00000418,false,Rx,0,8,B6,02,8F,FE,4F,FF,23,00,
-25166,00000418,false,Rx,0,8,C2,02,90,FE,09,FF,23,00,
-25162,00000418,false,Rx,0,8,BE,02,8D,FE,4E,FF,23,00,
-25158,00000418,false,Rx,0,8,B1,02,87,FE,03,FF,23,00,
-25152,00000418,false,Rx,0,8,C3,02,95,FE,4B,FF,23,00,
-25145,00000418,false,Rx,0,8,B7,02,89,FE,FF,FE,23,00,
-25137,00000418,false,Rx,0,8,C1,02,84,FE,4F,FF,23,00,
-25131,00000418,false,Rx,0,8,B1,02,97,FE,0F,FF,21,00,
-25124,00000418,false,Rx,0,8,C1,02,80,FE,47,FF,20,00,
-25116,00000418,false,Rx,0,8,B2,02,92,FE,0B,FF,20,00,
-25110,00000418,false,Rx,0,8,C3,02,81,FE,42,FF,20,00,
-25100,00000418,false,Rx,0,8,AF,02,96,FE,11,FF,21,00,
-25093,00000418,false,Rx,0,8,C3,02,7F,FE,2F,FF,20,00,
-25089,00000418,false,Rx,0,8,AC,02,9D,FE,21,FF,1F,00,
-24812,00000418,false,Rx,0,8,C9,02,76,FE,2A,FF,1D,00,
-24806,00000418,false,Rx,0,8,A7,02,9E,FE,23,FF,1D,00,
-24806,00000418,false,Rx,0,8,CB,02,7A,FE,1D,FF,20,00,
-24796,00000418,false,Rx,0,8,A1,02,9A,FE,25,FF,21,00,
-24792,00000418,false,Rx,0,8,D0,02,75,FE,21,FF,20,00,
-24785,00000418,false,Rx,0,8,A3,02,9A,FE,23,FF,1C,00,
-24781,00000418,false,Rx,0,8,C8,02,7D,FE,2A,FF,19,00,
-24770,00000611,false,Rx,0,1,01,00,00,00,00,00,00,00,
-24767,00000418,false,Rx,0,8,A4,02,96,FE,14,FF,1D,00,
-24767,00000418,false,Rx,0,8,CB,02,7B,FE,31,FF,25,00,
-24758,00000418,false,Rx,0,8,A9,02,92,FE,10,FF,2C,00,
-24753,00000418,false,Rx,0,8,BF,02,7F,FE,3D,FF,2C,00,
-24742,00000418,false,Rx,0,8,B2,02,95,FE,12,FF,27,00,
-24735,00000418,false,Rx,0,8,C3,02,79,FE,3A,FF,24,00,
-24730,00000418,false,Rx,0,8,AC,02,95,FE,10,FF,25,00,
-24712,00000418,false,Rx,0,8,C5,02,77,FE,36,FF,29,00,
-24960,00000418,false,Rx,0,8,AC,02,95,FE,12,FF,2B,00,
-24960,00000418,false,Rx,0,8,CE,02,77,FE,38,FF,29,00,
-24960,00000418,false,Rx,0,8,A5,02,91,FE,1D,FF,26,00,
-24952,00000418,false,Rx,0,8,CA,02,7B,FE,3C,FF,23,00,
-24948,00000418,false,Rx,0,8,AC,02,90,FE,11,FF,22,00,
-24943,00000418,false,Rx,0,8,CA,02,7D,FE,47,FF,21,00,
-24934,00000418,false,Rx,0,8,AF,02,8F,FE,10,FF,1E,00,
-24928,00000418,false,Rx,0,8,C1,02,79,FE,41,FF,1B,00,
-24920,00000418,false,Rx,0,8,B6,02,90,FE,12,FF,18,00,
-24913,00000418,false,Rx,0,8,C6,02,7B,FE,4A,FF,18,00,
-24907,00000418,false,Rx,0,8,AF,02,90,FE,1F,FF,1B,00,
-24901,00000418,false,Rx,0,8,C9,02,73,FE,3B,FF,1E,00,
-24895,00000418,false,Rx,0,8,AB,02,9A,FE,1D,FF,21,00,
-24882,00000418,false,Rx,0,8,CD,02,74,FE,3C,FF,21,00,
-24856,00000418,false,Rx,0,8,A7,02,92,FE,18,FF,20,00,
-24852,00000418,false,Rx,0,8,CF,02,81,FE,37,FF,1E,00,
-24852,00000418,false,Rx,0,8,A4,02,93,FE,18,FF,1D,00,
-24852,00000418,false,Rx,0,8,D3,02,83,FE,24,FF,1D,00,
-24844,00000418,false,Rx,0,8,AA,02,98,FE,31,FF,1E,00,
-24839,00000418,false,Rx,0,8,C6,02,84,FE,26,FF,1E,00,
-24833,00000418,false,Rx,0,8,AF,02,93,FE,34,FF,1C,00,
-24571,00000418,false,Rx,0,8,CA,02,7D,FE,1A,FF,1B,00,
-24557,00000418,false,Rx,0,8,B4,02,8E,FE,48,FF,1C,00,
-24552,00000418,false,Rx,0,8,BA,02,7D,FE,FA,FE,1E,00,
-24552,00000418,false,Rx,0,8,C0,02,93,FE,59,FF,1F,00,
-24547,00000418,false,Rx,0,8,BC,02,7E,FE,1E,FF,1E,00,
-24538,00000418,false,Rx,0,8,C1,02,7D,FE,4D,FF,1E,00,
-24530,00000418,false,Rx,0,8,B0,02,96,FE,0E,FF,1E,00,
-24525,00000418,false,Rx,0,8,C3,02,74,FE,4D,FF,1F,00,
-24519,00000418,false,Rx,0,8,B0,02,8E,FE,09,FF,20,00,
-24504,00000418,false,Rx,0,8,C7,02,83,FE,4B,FF,21,00,
-24500,00000418,false,Rx,0,8,AC,02,8C,FE,16,FF,21,00,
-24493,00000610,false,Rx,0,2,02,0F,00,00,00,00,00,00,
-24493,00000418,false,Rx,0,8,C2,02,78,FE,3E,FF,20,00,
-24487,00000418,false,Rx,0,8,B7,02,97,FE,13,FF,1F,00,
-24477,00000418,false,Rx,0,8,C1,02,74,FE,3E,FF,1D,00,
-24472,00000418,false,Rx,0,8,B0,02,90,FE,1E,FF,1C,00,
-24468,00000418,false,Rx,0,8,C7,02,79,FE,3E,FF,1D,00,
-24463,00000418,false,Rx,0,8,A8,02,98,FE,18,FF,1F,00,
-24457,00000418,false,Rx,0,8,CC,02,70,FE,38,FF,20,00,
-24449,00000418,false,Rx,0,8,A9,02,96,FE,1D,FF,1E,00,
-24698,00000418,false,Rx,0,8,C7,02,7F,FE,37,FF,1D,00,
-24690,00000418,false,Rx,0,8,A5,02,8E,FE,09,FF,1E,00,
-24678,00000418,false,Rx,0,8,C6,02,7C,FE,53,FF,1D,00,
-24673,00000418,false,Rx,0,8,B0,02,81,FE,08,FF,18,00,
-24661,00000418,false,Rx,0,8,B7,02,89,FE,49,FF,11,00,
-24653,00000418,false,Rx,0,8,BE,02,76,FE,07,FF,10,00,
-24653,00000418,false,Rx,0,8,B2,02,89,FE,5A,FF,1A,00,
-24646,00000418,false,Rx,0,8,C7,02,75,FE,00,FF,28,00,
-24642,00000418,false,Rx,0,8,A7,02,90,FE,3A,FF,2F,00,
-24634,00000418,false,Rx,0,8,CF,02,6E,FE,32,FF,29,00,
-24626,00000418,false,Rx,0,8,AA,02,8B,FE,19,FF,21,00,
-24620,00000418,false,Rx,0,8,C4,02,7C,FE,43,FF,1F,00,
-24613,00000418,false,Rx,0,8,B1,02,8B,FE,07,FF,25,00,
-24605,00000418,false,Rx,0,8,BF,02,76,FE,54,FF,2A,00,
-24601,00000418,false,Rx,0,8,BA,02,8F,FE,0D,FF,28,00,
-24592,00000418,false,Rx,0,8,B6,02,7E,FE,49,FF,22,00,
-24578,00000418,false,Rx,0,8,BF,02,81,FE,0A,FF,1E,00,
-24316,00000418,false,Rx,0,8,BC,02,81,FE,49,FF,1D,00,
-24310,00000418,false,Rx,0,8,B7,02,83,FE,06,FF,1C,00,
-24298,00000418,false,Rx,0,8,BB,02,8A,FE,52,FF,1A,00,
-24298,00000418,false,Rx,0,8,C0,02,78,FE,04,FF,1A,00,
-24292,00000418,false,Rx,0,8,B9,02,91,FE,4E,FF,1D,00,
-24284,00000418,false,Rx,0,8,BE,02,75,FE,0A,FF,20,00,
-24277,00000418,false,Rx,0,8,B7,02,92,FE,4C,FF,1F,00,
-24274,00000611,false,Rx,0,1,01,00,00,00,00,00,00,00,
-24273,00000418,false,Rx,0,8,CE,02,70,FE,27,FF,1C,00,
-24258,00000418,false,Rx,0,8,A7,02,95,FE,2A,FF,1E,00,
-24252,00000418,false,Rx,0,8,CF,02,75,FE,32,FF,25,00,
-24247,00000418,false,Rx,0,8,A7,02,96,FE,20,FF,29,00,
-24242,00000418,false,Rx,0,8,CF,02,71,FE,36,FF,28,00,
-24237,00000418,false,Rx,0,8,A6,02,8F,FE,19,FF,26,00,
-24229,00000418,false,Rx,0,8,CC,02,7C,FE,3E,FF,28,00,
-24219,00000418,false,Rx,0,8,AA,02,8C,FE,10,FF,2E,00,
-24215,00000418,false,Rx,0,8,CA,02,77,FE,48,FF,2F,00,
-24209,00000418,false,Rx,0,8,AF,02,92,FE,0D,FF,27,00,
-24197,00000418,false,Rx,0,8,C0,02,75,FE,46,FF,1C,00,
-24443,00000418,false,Rx,0,8,B7,02,83,FE,05,FF,1A,00,
-24438,00000418,false,Rx,0,8,BC,02,7C,FE,5A,FF,20,00,
-24438,00000418,false,Rx,0,8,B6,02,86,FE,0E,FF,28,00,
-24431,00000418,false,Rx,0,8,B9,02,7A,FE,4F,FF,2A,00,
-24418,00000418,false,Rx,0,8,C1,02,85,FE,01,FF,25,00,
-24412,00000418,false,Rx,0,8,B2,02,7A,FE,50,FF,20,00,
-24408,00000418,false,Rx,0,8,BE,02,77,FE,05,FF,20,00,
-24403,00000418,false,Rx,0,8,B5,02,90,FE,55,FF,24,00,
-24393,00000418,false,Rx,0,8,C3,02,72,FE,FE,FE,27,00,
-24388,00000418,false,Rx,0,8,AE,02,84,FE,4A,FF,29,00,
-24374,00000418,false,Rx,0,8,C9,02,79,FE,2D,FF,2A,00,
-24367,00000418,false,Rx,0,8,B1,02,86,FE,15,FF,2A,00,
-24367,00000418,false,Rx,0,8,C1,02,6D,FE,48,FF,28,00,
-24360,00000418,false,Rx,0,8,B5,02,8E,FE,12,FF,24,00,
-24349,00000418,false,Rx,0,8,BA,02,70,FE,47,FF,1F,00,
-24337,00000418,false,Rx,0,8,BB,02,7C,FE,0D,FF,1C,00,
-24332,00000418,false,Rx,0,8,BA,02,82,FE,50,FF,1D,00,
-24332,00000418,false,Rx,0,8,BF,02,6D,FE,04,FF,1E,00,
-24326,00000418,false,Rx,0,8,B5,02,85,FE,3B,FF,1F,00,
-24063,00000418,false,Rx,0,8,C9,02,6D,FE,36,FF,1F,00,
-24054,00000418,false,Rx,0,8,B1,02,83,FE,20,FF,1F,00,
-24048,00000418,false,Rx,0,8,C4,02,6B,FE,42,FF,21,00,
-24042,00000418,false,Rx,0,8,B3,02,87,FE,0E,FF,23,00,
-24036,00000418,false,Rx,0,8,C2,02,73,FE,4D,FF,25,00,
-24026,00000418,false,Rx,0,8,B7,02,75,FE,0D,FF,26,00,
-24018,00000418,false,Rx,0,8,BD,02,89,FE,53,FF,27,00,
-24014,00000418,false,Rx,0,8,C2,02,6B,FE,00,FF,29,00,
-24008,00000418,false,Rx,0,8,B1,02,8D,FE,4D,FF,29,00,
-23983,00000418,false,Rx,0,8,D1,02,6E,FE,26,FF,28,00,
-23978,00000610,false,Rx,0,2,02,0F,00,00,00,00,00,00,
-23977,00000418,false,Rx,0,8,A7,02,8D,FE,20,FF,27,00,
-23977,00000418,false,Rx,0,8,D2,02,6D,FE,43,FF,2A,00,
-23973,00000418,false,Rx,0,8,AF,02,96,FE,0D,FF,30,00,
-23968,00000418,false,Rx,0,8,C7,02,72,FE,44,FF,31,00,
-23964,00000418,false,Rx,0,8,B4,02,80,FE,05,FF,2B,00,
-23959,00000418,false,Rx,0,8,C2,02,77,FE,57,FF,22,00,
-23951,00000418,false,Rx,0,8,BB,02,7D,FE,03,FF,1C,00,
-23940,00000418,false,Rx,0,8,B8,02,7E,FE,4E,FF,1C,00,
-24187,00000418,false,Rx,0,8,BF,02,81,FE,04,FF,1F,00,
-24182,00000418,false,Rx,0,8,C0,02,6E,FE,51,FF,22,00,
-24172,00000418,false,Rx,0,8,B7,02,88,FE,11,FF,23,00,
-24169,00000418,false,Rx,0,8,BE,02,6F,FE,3C,FF,26,00,
-24164,00000418,false,Rx,0,8,B3,02,87,FE,13,FF,28,00,
-24150,00000418,false,Rx,0,8,C6,02,6A,FE,3A,FF,26,00,
-24142,00000418,false,Rx,0,8,B1,02,8A,FE,2F,FF,1E,00,
-24142,00000418,false,Rx,0,8,C3,02,70,FE,22,FF,18,00,
-24135,00000418,false,Rx,0,8,AE,02,7F,FE,3D,FF,19,00,
-24132,00000418,false,Rx,0,8,C7,02,71,FE,06,FF,1E,00,
-24125,00000418,false,Rx,0,8,B5,02,7B,FE,5F,FF,23,00,
-24115,00000418,false,Rx,0,8,BE,02,74,FE,F5,FE,26,00,
-24110,00000418,false,Rx,0,8,B4,02,7C,FE,55,FF,28,00,
-24094,00000418,false,Rx,0,8,C2,02,6E,FE,FC,FE,2B,00,
-24090,00000418,false,Rx,0,8,B2,02,77,FE,57,FF,2D,00,
-24087,00000418,false,Rx,0,8,C4,02,6D,FE,0E,FF,2A,00,
-24079,00000418,false,Rx,0,8,AD,02,81,FE,2D,FF,24,00,
-24070,00000418,false,Rx,0,8,C8,02,6B,FE,3C,FF,20,00,
-24065,00000418,false,Rx,0,8,B4,02,80,FE,19,FF,22,00,
-23806,00000418,false,Rx,0,8,BA,02,6B,FE,47,FF,27,00,
-23787,00000418,false,Rx,0,8,BE,02,77,FE,04,FF,29,00,
-23780,00000418,false,Rx,0,8,B9,02,77,FE,4F,FF,29,00,
-23779,00000418,false,Rx,0,8,BF,02,80,FE,01,FF,29,00,
-23774,00000611,false,Rx,0,1,01,00,00,00,00,00,00,00,
-23764,00000418,false,Rx,0,8,B2,02,7D,FE,38,FF,2A,00,
-23764,00000418,false,Rx,0,8,CC,02,63,FE,3D,FF,2C,00,
-23756,00000418,false,Rx,0,8,BB,02,88,FE,26,FF,2A,00,
-23750,00000418,false,Rx,0,8,BE,02,6A,FE,45,FF,25,00,
-23743,00000418,false,Rx,0,8,C2,02,7A,FE,17,FF,20,00,
-23736,00000418,false,Rx,0,8,BF,02,76,FE,4B,FF,1E,00,
-23732,00000418,false,Rx,0,8,B6,02,72,FE,06,FF,1D,00,
-23728,00000418,false,Rx,0,8,BD,02,7F,FE,4D,FF,19,00,
-23719,00000418,false,Rx,0,8,C2,02,74,FE,02,FF,14,00,
-23712,00000418,false,Rx,0,8,B7,02,87,FE,4F,FF,15,00,
-23707,00000418,false,Rx,0,8,C1,02,6B,FE,05,FF,1E,00,
-23698,00000418,false,Rx,0,8,B4,02,90,FE,3D,FF,2B,00,
-23683,00000418,false,Rx,0,8,C8,02,62,FE,15,FF,35,00,
-23927,00000418,false,Rx,0,8,AC,02,8C,FE,2B,FF,38,00,
-23927,00000418,false,Rx,0,8,CA,02,71,FE,2C,FF,35,00,
-23921,00000418,false,Rx,0,8,AA,02,8A,FE,1C,FF,32,00,
-23917,00000418,false,Rx,0,8,CD,02,68,FE,2A,FF,2D,00,
-23913,00000418,false,Rx,0,8,A8,02,93,FE,1B,FF,25,00,
-23907,00000418,false,Rx,0,8,C6,02,6B,FE,2F,FF,1B,00,
-23901,00000418,false,Rx,0,8,AE,02,8A,FE,11,FF,16,00,
-23884,00000418,false,Rx,0,8,CD,02,72,FE,3F,FF,1B,00,
-23877,00000418,false,Rx,0,8,AA,02,84,FE,04,FF,24,00,
-23871,00000418,false,Rx,0,8,C3,02,77,FE,43,FF,2B,00,
-23860,00000418,false,Rx,0,8,C8,02,7D,FE,14,FF,2B,00,
-23860,00000418,false,Rx,0,8,B9,02,82,FE,53,FF,25,00,
-23854,00000418,false,Rx,0,8,C0,02,6C,FE,FB,FE,1E,00,
-23833,00000418,false,Rx,0,8,AD,02,94,FE,36,FF,1A,00,
-23826,00000418,false,Rx,0,8,CF,02,67,FE,27,FF,18,00,
-23826,00000418,false,Rx,0,8,A6,02,8B,FE,10,FF,1A,00,
-23826,00000418,false,Rx,0,8,CC,02,72,FE,3B,FF,1E,00,
-23820,00000418,false,Rx,0,8,B4,02,89,FE,FF,FE,23,00,
-23814,00000418,false,Rx,0,8,C1,02,7A,FE,4A,FF,27,00,
-23552,00000418,false,Rx,0,8,BD,02,74,FE,F9,FE,29,00,
-23546,00000418,false,Rx,0,8,B5,02,85,FE,4D,FF,2A,00,
-23539,00000418,false,Rx,0,8,CF,02,67,FE,09,FF,2A,00,
-23529,00000418,false,Rx,0,8,A7,02,8C,FE,2E,FF,2A,00,
-23522,00000418,false,Rx,0,8,D0,02,6C,FE,30,FF,26,00,
-23516,00000418,false,Rx,0,8,AE,02,83,FE,11,FF,1F,00,
-23507,00000418,false,Rx,0,8,CE,02,6D,FE,47,FF,19,00,
-23502,00000418,false,Rx,0,8,B3,02,7D,FE,0E,FF,18,00,
-23497,00000418,false,Rx,0,8,C3,02,70,FE,4A,FF,1B,00,
-23492,00000610,false,Rx,0,2,02,0F,00,00,00,00,00,00,
-23484,00000418,false,Rx,0,8,C5,02,79,FE,03,FF,1D,00,
-23479,00000418,false,Rx,0,8,B9,02,71,FE,51,FF,1E,00,
-23474,00000418,false,Rx,0,8,C1,02,79,FE,13,FF,1F,00,
-23468,00000418,false,Rx,0,8,BD,02,75,FE,4E,FF,21,00,
-23463,00000418,false,Rx,0,8,C6,02,73,FE,0E,FF,23,00,
-23455,00000418,false,Rx,0,8,BC,02,71,FE,4E,FF,22,00,
-23448,00000418,false,Rx,0,8,C1,02,80,FE,14,FF,21,00,
-23437,00000418,false,Rx,0,8,C0,02,6F,FE,43,FF,23,00,
-23429,00000418,false,Rx,0,8,BD,02,80,FE,07,FF,27,00,
-23425,00000418,false,Rx,0,8,C9,02,64,FE,4B,FF,2A,00,
-23677,00000418,false,Rx,0,8,B5,02,88,FE,13,FF,28,00,
-23669,00000418,false,Rx,0,8,CE,02,68,FE,39,FF,23,00,
-23651,00000418,false,Rx,0,8,B4,02,88,FE,2E,FF,20,00,
-23646,00000418,false,Rx,0,8,C5,02,70,FE,0A,FF,22,00,
-23646,00000418,false,Rx,0,8,C4,02,6F,FE,48,FF,28,00,
-23638,00000418,false,Rx,0,8,B3,02,8F,FE,17,FF,2D,00,
-23630,00000418,false,Rx,0,8,D4,02,6A,FE,3B,FF,2E,00,
-23625,00000418,false,Rx,0,8,B0,02,83,FE,47,FF,2B,00,
-23620,00000418,false,Rx,0,8,C3,02,78,FE,04,FF,27,00,
-23613,00000418,false,Rx,0,8,D4,02,6F,FE,43,FF,22,00,
-23604,00000418,false,Rx,0,8,A9,02,84,FE,43,FF,1E,00,
-23599,00000418,false,Rx,0,8,C3,02,78,FE,03,FF,1E,00,
-23592,00000418,false,Rx,0,8,CC,02,73,FE,36,FF,21,00,
-23581,00000418,false,Rx,0,8,AF,02,7D,FE,43,FF,26,00,
-23575,00000418,false,Rx,0,8,C0,02,79,FE,05,FF,29,00,
-23570,00000418,false,Rx,0,8,D5,02,70,FE,1D,FF,27,00,
-23565,00000418,false,Rx,0,8,BC,02,6A,FE,4E,FF,24,00,
-23556,00000418,false,Rx,0,8,AE,02,7B,FE,2F,FF,24,00,
-23290,00000418,false,Rx,0,8,C1,02,8D,FE,0E,FF,25,00,
-23286,00000418,false,Rx,0,8,CC,02,70,FE,1E,FF,25,00,
-23274,00000418,false,Rx,0,8,BE,02,6D,FE,40,FF,22,00,
-23274,00000611,false,Rx,0,1,01,00,00,00,00,00,00,00,
-23271,00000418,false,Rx,0,8,B9,02,81,FE,45,FF,1F,00,
-23263,00000418,false,Rx,0,8,BA,02,82,FE,0E,FF,21,00,
-23255,00000418,false,Rx,0,8,C5,02,80,FE,05,FF,26,00,
-23248,00000418,false,Rx,0,8,D4,02,75,FE,27,FF,28,00,
-23244,00000418,false,Rx,0,8,CA,02,64,FE,41,FF,23,00,
-23236,00000418,false,Rx,0,8,C6,02,65,FE,46,FF,1C,00,
-23231,00000418,false,Rx,0,8,B7,02,82,FE,41,FF,19,00,
-23223,00000418,false,Rx,0,8,B2,02,82,FE,18,FF,1E,00,
-23216,00000418,false,Rx,0,8,B3,02,89,FE,16,FF,23,00,
-23210,00000418,false,Rx,0,8,B6,02,8C,FE,0C,FF,24,00,
-23200,00000418,false,Rx,0,8,C6,02,70,FE,10,FF,22,00,
-23193,00000418,false,Rx,0,8,D9,02,6D,FE,23,FF,22,00,
-23184,00000418,false,Rx,0,8,D3,02,69,FE,39,FF,26,00,
-23177,00000418,false,Rx,0,8,CE,02,66,FE,2E,FF,2A,00,
-23172,00000418,false,Rx,0,8,CB,02,6A,FE,3D,FF,27,00,
-23420,00000418,false,Rx,0,8,C4,02,6E,FE,4E,FF,21,00,
-23417,00000418,false,Rx,0,8,C1,02,6B,FE,50,FF,1D,00,
-23406,00000418,false,Rx,0,8,B0,02,80,FE,42,FF,1F,00,
-23398,00000418,false,Rx,0,8,A4,02,88,FE,31,FF,24,00,
-23391,00000418,false,Rx,0,8,9D,02,80,FE,2B,FF,26,00,
-23385,00000418,false,Rx,0,8,A9,02,89,FE,1E,FF,22,00,
-23379,00000418,false,Rx,0,8,B4,02,8B,FE,24,FF,1D,00,
-23372,00000418,false,Rx,0,8,B4,02,84,FE,1B,FF,1A,00,
-23368,00000418,false,Rx,0,8,B3,02,86,FE,21,FF,1B,00,
-23360,00000418,false,Rx,0,8,B2,02,87,FE,1F,FF,1E,00,
-23354,00000418,false,Rx,0,8,B0,02,85,FE,20,FF,1E,00,
-23346,00000418,false,Rx,0,8,B0,02,84,FE,21,FF,1E,00,
-23338,00000418,false,Rx,0,8,AF,02,88,FE,21,FF,20,00,
-23325,00000418,false,Rx,0,8,AE,02,85,FE,25,FF,24,00,
-23320,00000418,false,Rx,0,8,AE,02,84,FE,26,FF,26,00,
-23315,00000418,false,Rx,0,8,AC,02,83,FE,2E,FF,22,00,
-23311,00000418,false,Rx,0,8,AA,02,7D,FE,2F,FF,1C,00,
-23303,00000418,false,Rx,0,8,BE,02,6A,FE,48,FF,18,00,
-23298,00000418,false,Rx,0,8,C6,02,69,FE,59,FF,1A,00,
-23033,00000418,false,Rx,0,8,C4,02,6A,FE,49,FF,20,00,
-23026,00000418,false,Rx,0,8,C5,02,6B,FE,43,FF,24,00,
-23021,00000418,false,Rx,0,8,C7,02,69,FE,45,FF,23,00,
-23013,00000418,false,Rx,0,8,C6,02,6B,FE,44,FF,20,00,
-23004,00000418,false,Rx,0,8,C7,02,6A,FE,45,FF,21,00,
-22995,00000418,false,Rx,0,8,CA,02,69,FE,4A,FF,24,00,
-22989,00000418,false,Rx,0,8,C9,02,68,FE,49,FF,27,00,
-22983,00000610,false,Rx,0,2,02,0F,00,00,00,00,00,00,
-22983,00000418,false,Rx,0,8,C7,02,65,FE,43,FF,26,00,
-22972,00000418,false,Rx,0,8,CA,02,68,FE,46,FF,22,00,
-22965,00000418,false,Rx,0,8,C8,02,6A,FE,47,FF,1F,00,
-22961,00000418,false,Rx,0,8,C8,02,64,FE,4D,FF,1D,00,
-22955,00000418,false,Rx,0,8,CA,02,65,FE,51,FF,1B,00,
-22947,00000418,false,Rx,0,8,CB,02,67,FE,51,FF,17,00,
-22941,00000418,false,Rx,0,8,CB,02,62,FE,56,FF,14,00,
-22937,00000418,false,Rx,0,8,D3,02,64,FE,6A,FF,12,00,
-22927,00000418,false,Rx,0,8,C7,02,6B,FE,4E,FF,13,00,
-22923,00000418,false,Rx,0,8,BC,02,65,FE,55,FF,14,00,
-22916,00000418,false,Rx,0,8,BE,02,6B,FE,4F,FF,15,00,
-23163,00000418,false,Rx,0,8,BD,02,73,FE,51,FF,15,00,
-23156,00000418,false,Rx,0,8,BB,02,72,FE,5D,FF,12,00,
-23149,00000418,false,Rx,0,8,98,02,8A,FE,26,FF,10,00,
-23143,00000418,false,Rx,0,8,AA,02,93,FE,13,FF,11,00,
-23137,00000418,false,Rx,0,8,AA,02,85,FE,1C,FF,1A,00,
-23125,00000418,false,Rx,0,8,B3,02,8C,FE,18,FF,26,00,
-23121,00000418,false,Rx,0,8,B8,02,96,FE,14,FF,2E,00,
-23116,00000418,false,Rx,0,8,B6,02,8C,FE,11,FF,2C,00,
-23108,00000418,false,Rx,0,8,BD,02,90,FE,08,FF,24,00,
-23099,00000418,false,Rx,0,8,C6,02,84,FE,04,FF,1F,00,
-23091,00000418,false,Rx,0,8,C0,02,88,FE,ED,FE,21,00,
-23085,00000418,false,Rx,0,8,C0,02,89,FE,E8,FE,26,00,
-23081,00000418,false,Rx,0,8,D2,02,78,FE,04,FF,28,00,
-23069,00000418,false,Rx,0,8,D7,02,76,FE,18,FF,26,00,
-23062,00000418,false,Rx,0,8,DE,02,78,FE,17,FF,24,00,
-23054,00000418,false,Rx,0,8,DF,02,75,FE,23,FF,25,00,
-23045,00000418,false,Rx,0,8,CE,02,5A,FE,2D,FF,27,00,
-22784,00000418,false,Rx,0,8,C6,02,69,FE,40,FF,28,00,
-22775,00000418,false,Rx,0,8,C9,02,69,FE,58,FF,2B,00,
-22775,00000611,false,Rx,0,1,01,00,00,00,00,00,00,00,
-22763,00000418,false,Rx,0,8,C3,02,6D,FE,59,FF,31,00,
-22746,00000418,false,Rx,0,8,A5,02,76,FE,31,FF,37,00,
-22746,00000418,false,Rx,0,8,A4,02,7E,FE,2F,FF,38,00,
-22746,00000418,false,Rx,0,8,B3,02,83,FE,15,FF,32,00,
-22746,00000418,false,Rx,0,8,B8,02,86,FE,19,FF,28,00,
-22740,00000418,false,Rx,0,8,BA,02,90,FE,F5,FE,24,00,
-22732,00000418,false,Rx,0,8,B8,02,87,FE,F0,FE,28,00,
-22727,00000418,false,Rx,0,8,D4,02,75,FE,0B,FF,2D,00,
-22721,00000418,false,Rx,0,8,D8,02,72,FE,20,FF,2D,00,
-22712,00000418,false,Rx,0,8,C7,02,66,FE,39,FF,28,00,
-22707,00000418,false,Rx,0,8,C4,02,69,FE,37,FF,24,00,
-22699,00000418,false,Rx,0,8,BD,02,74,FE,3A,FF,23,00,
-22688,00000418,false,Rx,0,8,BB,02,6D,FE,52,FF,23,00,
-22684,00000418,false,Rx,0,8,BA,02,74,FE,52,FF,25,00,
-22676,00000418,false,Rx,0,8,A2,02,86,FE,36,FF,2C,00,
-22665,00000418,false,Rx,0,8,9F,02,82,FE,2D,FF,37,00,
-22658,00000418,false,Rx,0,8,A2,02,89,FE,18,FF,41,00,
-22905,00000418,false,Rx,0,8,AE,02,8F,FE,13,FF,40,00,
-22899,00000418,false,Rx,0,8,B3,02,91,FE,07,FF,36,00,
-22894,00000418,false,Rx,0,8,BF,02,88,FE,F9,FE,2B,00,
-22889,00000418,false,Rx,0,8,C8,02,8A,FE,E7,FE,24,00,
-22884,00000418,false,Rx,0,8,C3,02,87,FE,EB,FE,24,00,
-22877,00000418,false,Rx,0,8,D5,02,6F,FE,02,FF,26,00,
-22870,00000418,false,Rx,0,8,E2,02,6C,FE,19,FF,2A,00,
-22863,00000418,false,Rx,0,8,E2,02,67,FE,1B,FF,2D,00,
-22855,00000418,false,Rx,0,8,D5,02,61,FE,32,FF,2C,00,
-22850,00000418,false,Rx,0,8,D3,02,60,FE,34,FF,24,00,
-22841,00000418,false,Rx,0,8,D2,02,60,FE,37,FF,1A,00,
-22834,00000418,false,Rx,0,8,C2,02,6A,FE,45,FF,19,00,
-22828,00000418,false,Rx,0,8,BB,02,63,FE,60,FF,25,00,
-22816,00000418,false,Rx,0,8,B8,02,64,FE,5F,FF,36,00,
-22812,00000418,false,Rx,0,8,B7,02,6F,FE,61,FF,3C,00,
-22807,00000418,false,Rx,0,8,9A,02,7F,FE,38,FF,33,00,
-22801,00000418,false,Rx,0,8,94,02,86,FE,33,FF,22,00,
-22787,00000418,false,Rx,0,8,92,02,83,FE,2D,FF,17,00,
-22524,00000418,false,Rx,0,8,A2,02,8D,FE,16,FF,17,00,
-22520,00000418,false,Rx,0,8,A7,02,91,FE,11,FF,1E,00,
-22513,00000418,false,Rx,0,8,A9,02,8D,FE,0C,FF,24,00,
-22505,00000418,false,Rx,0,8,B9,02,8B,FE,03,FF,27,00,
-22501,00000418,false,Rx,0,8,B9,02,94,FE,E8,FE,26,00,
-22494,00000418,false,Rx,0,8,B9,02,8F,FE,E7,FE,24,00,
-22489,00000418,false,Rx,0,8,C5,02,77,FE,F2,FE,22,00,
-22474,00000610,false,Rx,0,2,02,0F,00,00,00,00,00,00,
-22474,00000418,false,Rx,0,8,DF,02,72,FE,0F,FF,25,00,
-22467,00000418,false,Rx,0,8,E1,02,6F,FE,12,FF,30,00,
-22450,00000418,false,Rx,0,8,DC,02,69,FE,24,FF,3E,00,
-22450,00000418,false,Rx,0,8,CC,02,6C,FE,2D,FF,45,00,
-22450,00000418,false,Rx,0,8,C9,02,66,FE,2F,FF,41,00,
-22445,00000418,false,Rx,0,8,C0,02,6B,FE,3F,FF,37,00,
-22438,00000418,false,Rx,0,8,BF,02,6C,FE,63,FF,2F,00,
-22432,00000418,false,Rx,0,8,BB,02,65,FE,67,FF,2B,00,
-22426,00000418,false,Rx,0,8,B0,02,7C,FE,48,FF,28,00,
-22415,00000418,false,Rx,0,8,9A,02,8D,FE,2C,FF,24,00,
-22410,00000418,false,Rx,0,8,93,02,8B,FE,24,FF,24,00,
-22405,00000418,false,Rx,0,8,A0,02,88,FE,10,FF,2C,00,
-22653,00000418,false,Rx,0,8,AC,02,97,FE,11,FF,36,00,
-22647,00000418,false,Rx,0,8,A9,02,8E,FE,0D,FF,3B,00,
-22637,00000418,false,Rx,0,8,BC,02,89,FE,EE,FE,36,00,
-22632,00000418,false,Rx,0,8,C1,02,96,FE,E3,FE,2E,00,
-22614,00000418,false,Rx,0,8,C0,02,81,FE,E2,FE,2C,00,
-22608,00000418,false,Rx,0,8,DC,02,6E,FE,07,FF,2D,00,
-22607,00000418,false,Rx,0,8,E2,02,71,FE,12,FF,2C,00,
-22601,00000418,false,Rx,0,8,D7,02,5B,FE,2A,FF,29,00,
-22591,00000418,false,Rx,0,8,D4,02,5F,FE,36,FF,2D,00,
-22587,00000418,false,Rx,0,8,D3,02,6D,FE,3F,FF,38,00,
-22580,00000418,false,Rx,0,8,C3,02,62,FE,56,FF,42,00,
-22574,00000418,false,Rx,0,8,BB,02,65,FE,59,FF,45,00,
-22564,00000418,false,Rx,0,8,AD,02,7D,FE,51,FF,3F,00,
-22557,00000418,false,Rx,0,8,94,02,7B,FE,37,FF,35,00,
-22552,00000418,false,Rx,0,8,98,02,89,FE,1F,FF,2B,00,
-22549,00000418,false,Rx,0,8,A3,02,9D,FE,13,FF,21,00,
-22535,00000418,false,Rx,0,8,A4,02,92,FE,0B,FF,1A,00,
-22270,00000418,false,Rx,0,8,AD,02,93,FE,F9,FE,1C,00,
-22270,00000611,false,Rx,0,1,01,00,00,00,00,00,00,00,
-22266,00000418,false,Rx,0,8,AD,02,93,FE,EA,FE,27,00,
-22254,00000418,false,Rx,0,8,C6,02,77,FE,FA,FE,34,00,
-22250,00000418,false,Rx,0,8,D5,02,74,FE,0E,FF,39,00,
-22249,00000418,false,Rx,0,8,D0,02,70,FE,22,FF,34,00,
-22244,00000418,false,Rx,0,8,C8,02,69,FE,20,FF,2D,00,
-22237,00000418,false,Rx,0,8,C7,02,6B,FE,28,FF,2A,00,
-22227,00000418,false,Rx,0,8,C7,02,65,FE,49,FF,2A,00,
-22222,00000418,false,Rx,0,8,BE,02,6E,FE,43,FF,2B,00,
-22213,00000418,false,Rx,0,8,A5,02,81,FE,2A,FF,31,00,
-22207,00000418,false,Rx,0,8,A2,02,89,FE,1F,FF,3D,00,
-22202,00000418,false,Rx,0,8,AD,02,8B,FE,05,FF,47,00,
-22195,00000418,false,Rx,0,8,AC,02,8A,FE,0B,FF,48,00,
-22176,00000418,false,Rx,0,8,B7,02,8B,FE,F6,FE,3C,00,
-22168,00000418,false,Rx,0,8,B5,02,87,FE,F3,FE,2D,00,
-22168,00000418,false,Rx,0,8,CB,02,79,FE,0A,FF,26,00,
-22165,00000418,false,Rx,0,8,CF,02,74,FE,18,FF,28,00,
-22389,00000418,false,Rx,0,8,C5,02,6B,FE,31,FF,2F,00,
-22382,00000418,false,Rx,0,8,C3,02,6C,FE,29,FF,33,00,
-22382,00000418,false,Rx,0,8,BC,02,69,FE,48,FF,33,00,
-22382,00000418,false,Rx,0,8,B8,02,72,FE,4B,FF,30,00,
-22381,00000418,false,Rx,0,8,A1,02,86,FE,2E,FF,2E,00,
-22376,00000418,false,Rx,0,8,AC,02,86,FE,23,FF,2C,00,
-22371,00000418,false,Rx,0,8,B0,02,8C,FE,05,FF,2D,00,
-22364,00000418,false,Rx,0,8,B5,02,84,FE,02,FF,34,00,
-22356,00000418,false,Rx,0,8,BB,02,87,FE,F5,FE,3D,00,
-22350,00000418,false,Rx,0,8,CB,02,76,FE,01,FF,3F,00,
-22342,00000418,false,Rx,0,8,D1,02,6E,FE,1D,FF,36,00,
-22330,00000418,false,Rx,0,8,C8,02,6B,FE,28,FF,26,00,
-22326,00000418,false,Rx,0,8,C0,02,70,FE,37,FF,1A,00,
-22319,00000418,false,Rx,0,8,B7,02,6A,FE,49,FF,17,00,
-22316,00000418,false,Rx,0,8,AA,02,79,FE,3B,FF,1D,00,
-22303,00000418,false,Rx,0,8,9D,02,89,FE,24,FF,23,00,
-22296,00000418,false,Rx,0,8,A3,02,90,FE,11,FF,24,00,
-22292,00000418,false,Rx,0,8,A6,02,8E,FE,09,FF,20,00,
-22280,00000418,false,Rx,0,8,B0,02,95,FE,EF,FE,1F,00,
-22276,00000418,false,Rx,0,8,BA,02,7A,FE,FA,FE,24,00,
-22276,00000418,false,Rx,0,8,D1,02,75,FE,11,FF,2E,00,
-22014,00000418,false,Rx,0,8,C5,02,6D,FE,26,FF,36,00,
-22006,00000418,false,Rx,0,8,C1,02,6C,FE,33,FF,34,00,
-21996,00000418,false,Rx,0,8,BE,02,6F,FE,3B,FF,28,00,
-21991,00000418,false,Rx,0,8,B2,02,80,FE,34,FF,19,00,
-21968,00000418,false,Rx,0,8,A3,02,79,FE,1E,FF,13,00,
-21959,00000610,false,Rx,0,2,02,0F,00,00,00,00,00,00,
-21958,00000418,false,Rx,0,8,B1,02,87,FE,0A,FF,1A,00,
-21958,00000418,false,Rx,0,8,B4,02,8A,FE,09,FF,24,00,
-21949,00000418,false,Rx,0,8,B4,02,87,FE,F6,FE,27,00,
-21949,00000418,false,Rx,0,8,C4,02,7B,FE,E8,FE,20,00,
-21938,00000418,false,Rx,0,8,CE,02,7B,FE,0D,FF,1B,00,
-21931,00000418,false,Rx,0,8,C0,02,6B,FE,27,FF,22,00,
-21931,00000418,false,Rx,0,8,BE,02,6E,FE,31,FF,2E,00,
-21926,00000418,false,Rx,0,8,B8,02,74,FE,47,FF,33,00,
-21922,00000418,false,Rx,0,8,A9,02,7D,FE,37,FF,29,00,
-21906,00000418,false,Rx,0,8,A0,02,89,FE,1E,FF,1B,00,
-21905,00000418,false,Rx,0,8,A6,02,96,FE,0C,FF,15,00,
-21897,00000418,false,Rx,0,8,AC,02,84,FE,01,FF,1B,00,
-21890,00000418,false,Rx,0,8,B6,02,8A,FE,F3,FE,22,00,
-22140,00000418,false,Rx,0,8,C7,02,80,FE,05,FF,23,00,
-22135,00000418,false,Rx,0,8,CD,02,6A,FE,18,FF,22,00,
-22125,00000418,false,Rx,0,8,CB,02,69,FE,27,FF,27,00,
-22119,00000418,false,Rx,0,8,BF,02,6F,FE,39,FF,33,00,
-22115,00000418,false,Rx,0,8,B7,02,6E,FE,3E,FF,39,00,
-22097,00000418,false,Rx,0,8,A6,02,80,FE,28,FF,30,00,
-22077,00000418,false,Rx,0,8,AB,02,8F,FE,0E,FF,1F,00,
-22077,00000418,false,Rx,0,8,AE,02,86,FE,07,FF,13,00,
-22077,00000418,false,Rx,0,8,B5,02,86,FE,02,FF,14,00,
-22076,00000418,false,Rx,0,8,C7,02,78,FE,12,FF,1A,00,
-22070,00000418,false,Rx,0,8,BC,02,6E,FE,24,FF,1A,00,
-22063,00000418,false,Rx,0,8,B8,02,74,FE,2A,FF,18,00,
-22058,00000418,false,Rx,0,8,B0,02,78,FE,42,FF,1C,00,
-22053,00000418,false,Rx,0,8,9E,02,81,FE,29,FF,2A,00,
-22045,00000418,false,Rx,0,8,9E,02,8A,FE,10,FF,35,00,
-22038,00000418,false,Rx,0,8,A6,02,8F,FE,05,FF,32,00,
-22033,00000611,false,Rx,0,1,01,00,00,00,00,00,00,00,
-22023,00000418,false,Rx,0,8,AF,02,8E,FE,F1,FE,24,00,
-22017,00000418,false,Rx,0,8,B9,02,84,FE,F1,FE,17,00,
-21756,00000418,false,Rx,0,8,CC,02,77,FE,08,FF,15,00,
-21745,00000418,false,Rx,0,8,C5,02,66,FE,19,FF,1B,00,
-21735,00000418,false,Rx,0,8,C0,02,6E,FE,26,FF,22,00,
-21735,00000418,false,Rx,0,8,BE,02,6B,FE,3E,FF,25,00,
-21727,00000418,false,Rx,0,8,A5,02,7A,FE,2B,FF,29,00,
-21721,00000418,false,Rx,0,8,A5,02,8A,FE,0C,FF,2D,00,
-21715,00000418,false,Rx,0,8,AB,02,88,FE,08,FF,2D,00,
-21706,00000418,false,Rx,0,8,AD,02,8D,FE,F3,FE,27,00,
-21698,00000418,false,Rx,0,8,B8,02,7C,FE,F8,FE,1F,00,
-21693,00000418,false,Rx,0,8,C6,02,71,FE,1F,FF,1A,00,
-21684,00000418,false,Rx,0,8,B8,02,77,FE,26,FF,19,00,
-21673,00000418,false,Rx,0,8,B2,02,6F,FE,35,FF,1B,00,
-21665,00000418,false,Rx,0,8,AC,02,7B,FE,35,FF,1E,00,
-21665,00000418,false,Rx,0,8,9C,02,88,FE,12,FF,22,00,
-21661,00000418,false,Rx,0,8,A1,02,99,FE,FF,FE,23,00,
-21655,00000418,false,Rx,0,8,AE,02,8B,FE,F4,FE,1F,00,
-21642,00000418,false,Rx,0,8,BD,02,80,FE,EF,FE,17,00,
-21637,00000418,false,Rx,0,8,CA,02,6F,FE,03,FF,12,00,
-21887,00000418,false,Rx,0,8,C8,02,67,FE,20,FF,13,00,
-21882,00000418,false,Rx,0,8,BC,02,6D,FE,3C,FF,19,00,
-21875,00000418,false,Rx,0,8,B1,02,71,FE,37,FF,21,00,
-21871,00000418,false,Rx,0,8,A2,02,84,FE,1C,FF,29,00,
-21862,00000418,false,Rx,0,8,A6,02,8A,FE,06,FF,30,00,
-21856,00000418,false,Rx,0,8,A9,02,8B,FE,FA,FE,33,00,
-21846,00000418,false,Rx,0,8,BB,02,77,FE,FB,FE,2F,00,
-21842,00000418,false,Rx,0,8,BA,02,76,FE,23,FF,26,00,
-21835,00000418,false,Rx,0,8,B1,02,6F,FE,2C,FF,1C,00,
-21826,00000418,false,Rx,0,8,AB,02,7D,FE,38,FF,17,00,
-21818,00000418,false,Rx,0,8,96,02,8E,FE,1C,FF,17,00,
-21812,00000418,false,Rx,0,8,9A,02,8D,FE,FE,FE,1C,00,
-21806,00000418,false,Rx,0,8,A5,02,8B,FE,EA,FE,22,00,
-21788,00000418,false,Rx,0,8,B4,02,88,FE,E9,FE,2A,00,
-21782,00000418,false,Rx,0,8,C4,02,6E,FE,06,FF,2D,00,
-21782,00000418,false,Rx,0,8,C3,02,6C,FE,1A,FF,27,00,
-21778,00000418,false,Rx,0,8,BA,02,70,FE,31,FF,1A,00,
-21770,00000418,false,Rx,0,8,A7,02,75,FE,2C,FF,0F,00,
-21763,00000418,false,Rx,0,8,A7,02,88,FE,0D,FF,0F,00,
-21502,00000418,false,Rx,0,8,A9,02,90,FE,FE,FE,1B,00,
-21492,00000418,false,Rx,0,8,AE,02,7F,FE,E9,FE,2A,00,
-21488,00000418,false,Rx,0,8,C3,02,71,FE,0F,FF,32,00,
-21481,00000418,false,Rx,0,8,B7,02,78,FE,24,FF,33,00,
-21475,00000610,false,Rx,0,2,02,0F,00,00,00,00,00,00,
-21467,00000418,false,Rx,0,8,AB,02,70,FE,36,FF,2F,00,
-21460,00000418,false,Rx,0,8,95,02,88,FE,18,FF,29,00,
-21456,00000418,false,Rx,0,8,9E,02,97,FE,F9,FE,22,00,
-21449,00000418,false,Rx,0,8,A8,02,8D,FE,E9,FE,1B,00,
-21445,00000418,false,Rx,0,8,BC,02,7B,FE,ED,FE,1A,00,
-21432,00000418,false,Rx,0,8,BF,02,6F,FE,1F,FF,20,00,
-21427,00000418,false,Rx,0,8,B7,02,6B,FE,2F,FF,28,00,
-21420,00000418,false,Rx,0,8,A6,02,7B,FE,2C,FF,2A,00,
-21415,00000418,false,Rx,0,8,A8,02,8F,FE,0D,FF,21,00,
-21410,00000418,false,Rx,0,8,A7,02,88,FE,F3,FE,15,00,
-21403,00000418,false,Rx,0,8,B7,02,7B,FE,F8,FE,11,00,
-21398,00000418,false,Rx,0,8,BD,02,74,FE,19,FF,1A,00,
-21388,00000418,false,Rx,0,8,AF,02,71,FE,1D,FF,2B,00,
-21382,00000418,false,Rx,0,8,A6,02,76,FE,2F,FF,38,00,
-21628,00000418,false,Rx,0,8,95,02,89,FE,16,FF,3A,00,
-21623,00000418,false,Rx,0,8,99,02,8C,FE,FC,FE,32,00,
-21614,00000418,false,Rx,0,8,9B,02,8B,FE,F8,FE,25,00,
-21604,00000418,false,Rx,0,8,AB,02,86,FE,F1,FE,18,00,
-21599,00000418,false,Rx,0,8,AA,02,83,FE,F1,FE,12,00,
-21591,00000418,false,Rx,0,8,B9,02,76,FE,FF,FE,18,00,
-21584,00000418,false,Rx,0,8,BC,02,6E,FE,04,FF,25,00,
-21581,00000418,false,Rx,0,8,B4,02,6F,FE,24,FF,2E,00,
-21576,00000418,false,Rx,0,8,AD,02,75,FE,21,FF,2B,00,
-21566,00000418,false,Rx,0,8,A6,02,72,FE,22,FF,1D,00,
-21562,00000418,false,Rx,0,8,A7,02,6E,FE,2F,FF,11,00,
-21555,00000418,false,Rx,0,8,A6,02,77,FE,27,FF,15,00,
-21545,00000418,false,Rx,0,8,A5,02,70,FE,26,FF,27,00,
-21536,00000418,false,Rx,0,8,A5,02,71,FE,1E,FF,39,00,
-21532,00000418,false,Rx,0,8,A7,02,71,FE,25,FF,3C,00,
-21525,00000611,false,Rx,0,1,00,00,00,00,00,00,00,00,
-21520,00000418,false,Rx,0,8,A1,02,77,FE,25,FF,2D,00,
